Time [s],Packet ID,MOSI,MISO
4.108880200000000,0,0x12,0x00
5.109988000000000,0,0x01,0x00
5.110044320000000,0,0xF9,0xFF
5.110062800000000,0,0x00,0xFF
5.110081280000000,0,0x00,0xFF
5.110125600000000,0,0x3A,0x00
5.110167440000000,0,0x1B,0xFF
5.110210120000000,0,0x3B,0x00
5.110251760000000,0,0x0B,0xFF
5.110294040000000,0,0x11,0x00
5.110335520000000,0,0x03,0xFF
5.110379640000000,0,0x44,0x00
5.110421040000000,0,0x00,0xFF
5.110439480000000,0,0x10,0xFF
5.110483120000000,0,0x45,0x00
5.110525360000000,0,0x00,0xFF
5.110543800000000,0,0x00,0xFF
5.110562280000000,0,0xF9,0xFF
5.110580760000000,0,0x00,0xFF
5.110622920000000,0,0x2C,0x00
5.110664040000000,0,0x70,0xFF
5.110710800000000,0,0x32,0x00
5.110755240000000,0,0x02,0xFF
5.110773680000000,0,0x02,0xFF
5.110792160000000,0,0x01,0xFF
5.110810640000000,0,0x11,0xFF
5.110829080000000,0,0x12,0xFF
5.110847560000000,0,0x12,0xFF
5.110866040000000,0,0x22,0xFF
5.110884480000000,0,0x22,0xFF
5.110902960000000,0,0x66,0xFF
5.110921440000000,0,0x69,0xFF
5.110939880000000,0,0x69,0xFF
5.110958360000000,0,0x59,0xFF
5.110976840000000,0,0x58,0xFF
5.110995320000000,0,0x99,0xFF
5.111013760000000,0,0x99,0xFF
5.111032240000000,0,0x88,0xFF
5.111050720000000,0,0x00,0xFF
5.111069160000000,0,0x00,0xFF
5.111087640000000,0,0x00,0xFF
5.111106120000000,0,0x00,0xFF
5.111124560000000,0,0xF8,0xFF
5.111143040000000,0,0xB4,0xFF
5.111161520000000,0,0x13,0xFF
5.111179960000000,0,0x51,0xFF
5.111198440000000,0,0x35,0xFF
5.111216920000000,0,0x51,0xFF
5.111235400000000,0,0x51,0xFF
5.111253840000000,0,0x19,0xFF
5.111272320000000,0,0x01,0xFF
5.111290800000000,0,0x00,0xFF
5.111342680000000,0,0x3C,0x00
5.111383920000000,0,0x01,0xFF
5.111425880000000,0,0x4E,0x00
5.111467240000000,0,0x00,0xFF
5.111509040000000,0,0x4F,0x00
5.111550200000000,0,0x00,0xFF
5.111568640000000,0,0x00,0xFF
5.111613320000000,0,0x24,0x00
5.111745880000000,0,0xFF,0xFF
5.111762320000000,0,0xFF,0xFF
5.111778720000000,0,0xFF,0xFF
5.111795120000000,0,0xFF,0xFF
5.111811560000000,0,0xFF,0xFF
5.111827960000000,0,0xFF,0xFF
5.111844400000000,0,0xFF,0xFF
5.111860800000000,0,0xFF,0xFF
5.111877200000000,0,0xFF,0xFF
5.111893640000000,0,0xFF,0xFF
5.111910040000000,0,0xFF,0xFF
5.111926480000000,0,0xFF,0xFF
5.111942880000000,0,0xFF,0xFF
5.111959280000000,0,0xFF,0xFF
5.111975720000000,0,0xFF,0xFF
5.111992120000000,0,0xFF,0xFF
5.112008560000000,0,0xFF,0xFF
5.112024960000000,0,0xFF,0xFF
5.112041360000000,0,0xFF,0xFF
5.112057800000000,0,0xFF,0xFF
5.112074200000000,0,0xFF,0xFF
5.112090640000000,0,0xFF,0xFF
5.112107040000000,0,0xFF,0xFF
5.112123440000000,0,0xFF,0xFF
5.112139880000000,0,0xFF,0xFF
5.112156280000000,0,0xFF,0xFF
5.112172720000000,0,0xFF,0xFF
5.112189120000000,0,0xFF,0xFF
5.112205520000000,0,0xFF,0xFF
5.112221960000000,0,0xFF,0xFF
5.112238360000000,0,0xFF,0xFF
5.112254800000000,0,0xFF,0xFF
5.112271200000000,0,0xFF,0xFF
5.112287600000000,0,0xFF,0xFF
5.112304040000000,0,0xFF,0xFF
5.112320440000000,0,0xFF,0xFF
5.112336840000000,0,0xFF,0xFF
5.112353280000000,0,0xFF,0xFF
5.112369680000000,0,0xFF,0xFF
5.112386120000000,0,0xFF,0xFF
5.112402520000000,0,0xFF,0xFF
5.112418920000000,0,0xFF,0xFF
5.112435360000000,0,0xFF,0xFF
5.112451760000000,0,0xFF,0xFF
5.112468200000000,0,0xFF,0xFF
5.112484600000000,0,0xFF,0xFF
5.112501000000000,0,0xFF,0xFF
5.112517440000000,0,0xFF,0xFF
5.112533840000000,0,0xFF,0xFF
5.112550280000000,0,0xFF,0xFF
5.112566680000000,0,0xFF,0xFF
5.112583080000000,0,0xFF,0xFF
5.112599520000000,0,0xFF,0xFF
5.112615920000000,0,0xFF,0xFF
5.112632360000000,0,0xFF,0xFF
5.112648760000000,0,0xFF,0xFF
5.112665160000000,0,0xFF,0xFF
5.112681600000000,0,0xFF,0xFF
5.112698000000000,0,0xFF,0xFF
5.112714440000000,0,0xFF,0xFF
5.112730840000000,0,0xFF,0xFF
5.112747240000000,0,0xFF,0xFF
5.112763680000000,0,0xFF,0xFF
5.112780080000000,0,0xFF,0xFF
5.112796520000000,0,0xFF,0xFF
5.112812920000000,0,0xFF,0xFF
5.112829320000000,0,0xFF,0xFF
5.112845760000000,0,0xFF,0xFF
5.112862160000000,0,0xFF,0xFF
5.112878560000000,0,0xFF,0xFF
5.112895000000000,0,0xFF,0xFF
5.112911400000000,0,0xFF,0xFF
5.112927840000000,0,0xFF,0xFF
5.112944240000000,0,0xFF,0xFF
5.112960640000000,0,0xFF,0xFF
5.112977080000000,0,0xFF,0xFF
5.112993480000000,0,0xFF,0xFF
5.113009920000000,0,0xFF,0xFF
5.113026320000000,0,0xFF,0xFF
5.113042720000000,0,0xFF,0xFF
5.113059160000000,0,0xFF,0xFF
5.113075560000000,0,0xFF,0xFF
5.113092000000000,0,0xFF,0xFF
5.113108400000000,0,0xFF,0xFF
5.113124800000000,0,0xFF,0xFF
5.113141240000000,0,0xFF,0xFF
5.113157640000000,0,0xFF,0xFF
5.113174080000000,0,0xFF,0xFF
5.113190480000000,0,0xFF,0xFF
5.113206880000000,0,0xFF,0xFF
5.113223320000000,0,0xFF,0xFF
5.113239720000000,0,0xFF,0xFF
5.113256160000000,0,0xFF,0xFF
5.113272560000000,0,0xFF,0xFF
5.113288960000000,0,0xFF,0xFF
5.113305400000000,0,0xFF,0xFF
5.113321800000000,0,0xFF,0xFF
5.113338240000000,0,0xFF,0xFF
5.113354640000000,0,0xFF,0xFF
5.113371040000000,0,0xFF,0xFF
5.113387480000000,0,0xFF,0xFF
5.113403880000000,0,0xFF,0xFF
5.113420320000000,0,0xFF,0xFF
5.113436720000000,0,0xFF,0xFF
5.113453120000000,0,0xFF,0xFF
5.113469560000000,0,0xFF,0xFF
5.113485960000000,0,0xFF,0xFF
5.113502360000000,0,0xFF,0xFF
5.113518800000000,0,0xFF,0xFF
5.113535200000000,0,0xFF,0xFF
5.113551640000000,0,0xFF,0xFF
5.113568040000000,0,0xFF,0xFF
5.113584440000000,0,0xFF,0xFF
5.113600880000000,0,0xFF,0xFF
5.113617280000000,0,0xFF,0xFF
5.113633720000000,0,0xFF,0xFF
5.113650120000000,0,0xFF,0xFF
5.113666520000000,0,0xFF,0xFF
5.113682960000000,0,0xFF,0xFF
5.113699360000000,0,0xFF,0xFF
5.113715800000000,0,0xFF,0xFF
5.113732200000000,0,0xFF,0xFF
5.113748600000000,0,0xFF,0xFF
5.113765040000000,0,0xFF,0xFF
5.113781440000000,0,0xFF,0xFF
5.113797880000000,0,0xFF,0xFF
5.113814280000000,0,0xFF,0xFF
5.113830680000000,0,0xFF,0xFF
5.113847120000000,0,0xFF,0xFF
5.113863520000000,0,0xFF,0xFF
5.113879960000000,0,0xFF,0xFF
5.113896360000000,0,0xFF,0xFF
5.113912760000000,0,0xFF,0xFF
5.113929200000000,0,0xFF,0xFF
5.113945600000000,0,0xFF,0xFF
5.113962040000000,0,0xFF,0xFF
5.113978440000000,0,0xFF,0xFF
5.113994840000000,0,0xFF,0xFF
5.114011280000000,0,0xFF,0xFF
5.114027680000000,0,0xFF,0xFF
5.114044120000000,0,0xFF,0xFF
5.114060520000000,0,0xFF,0xFF
5.114076920000000,0,0xFF,0xFF
5.114093360000000,0,0xFF,0xFF
5.114109760000000,0,0xFF,0xFF
5.114126160000000,0,0xFF,0xFF
5.114142600000000,0,0xFF,0xFF
5.114159000000000,0,0xFF,0xFF
5.114175440000000,0,0xFF,0xFF
5.114191840000000,0,0xFF,0xFF
5.114208240000000,0,0xFF,0xFF
5.114224680000000,0,0xFF,0xFF
5.114241080000000,0,0xFF,0xFF
5.114257520000000,0,0xFF,0xFF
5.114273920000000,0,0xFF,0xFF
5.114290320000000,0,0xFF,0xFF
5.114306760000000,0,0xFF,0xFF
5.114323160000000,0,0xFF,0xFF
5.114339600000000,0,0xFF,0xFF
5.114356000000000,0,0xFF,0xFF
5.114372400000000,0,0xFF,0xFF
5.114388840000000,0,0xFF,0xFF
5.114405240000000,0,0xFF,0xFF
5.114421680000000,0,0xFF,0xFF
5.114438080000000,0,0xFF,0xFF
5.114454480000000,0,0xFF,0xFF
5.114470920000000,0,0xFF,0xFF
5.114487320000000,0,0xFF,0xFF
5.114503760000000,0,0xFF,0xFF
5.114520160000000,0,0xFF,0xFF
5.114536560000000,0,0xFF,0xFF
5.114553000000000,0,0xFF,0xFF
5.114569400000000,0,0xFF,0xFF
5.114585840000000,0,0xFF,0xFF
5.114602240000000,0,0xFF,0xFF
5.114618640000000,0,0xFF,0xFF
5.114635080000000,0,0xFF,0xFF
5.114651480000000,0,0xFF,0xFF
5.114667920000000,0,0xFF,0xFF
5.114684320000000,0,0xFF,0xFF
5.114700720000000,0,0xFF,0xFF
5.114717160000000,0,0xFF,0xFF
5.114733560000000,0,0xFF,0xFF
5.114749960000000,0,0xFF,0xFF
5.114766400000000,0,0xFF,0xFF
5.114782800000000,0,0xFF,0xFF
5.114799240000000,0,0xFF,0xFF
5.114815640000000,0,0xFF,0xFF
5.114832040000000,0,0xFF,0xFF
5.114848480000000,0,0xFF,0xFF
5.114864880000000,0,0xFF,0xFF
5.114881320000000,0,0xFF,0xFF
5.114897720000000,0,0xFF,0xFF
5.114914120000000,0,0xFF,0xFF
5.114930560000000,0,0xFF,0xFF
5.114946960000000,0,0xFF,0xFF
5.114963400000000,0,0xFF,0xFF
5.114979800000000,0,0xFF,0xFF
5.114996200000000,0,0xFF,0xFF
5.115012640000000,0,0xFF,0xFF
5.115029040000000,0,0xFF,0xFF
5.115045480000000,0,0xFF,0xFF
5.115061880000000,0,0xFF,0xFF
5.115078280000000,0,0xFF,0xFF
5.115094720000000,0,0xFF,0xFF
5.115111120000000,0,0xFF,0xFF
5.115127560000000,0,0xFF,0xFF
5.115143960000000,0,0xFF,0xFF
5.115160360000000,0,0xFF,0xFF
5.115176800000000,0,0xFF,0xFF
5.115193200000000,0,0xFF,0xFF
5.115209640000000,0,0xFF,0xFF
5.115226040000000,0,0xFF,0xFF
5.115242440000000,0,0xFF,0xFF
5.115258880000000,0,0xFF,0xFF
5.115275280000000,0,0xFF,0xFF
5.115291680000000,0,0xFF,0xFF
5.115308120000000,0,0xFF,0xFF
5.115324520000000,0,0xFF,0xFF
5.115340960000000,0,0xFF,0xFF
5.115357360000000,0,0xFF,0xFF
5.115373760000000,0,0xFF,0xFF
5.115390200000000,0,0xFF,0xFF
5.115406600000000,0,0xFF,0xFF
5.115423040000000,0,0xFF,0xFF
5.115439440000000,0,0xFF,0xFF
5.115455840000000,0,0xFF,0xFF
5.115472280000000,0,0xFF,0xFF
5.115488680000000,0,0xFF,0xFF
5.115505120000000,0,0xFF,0xFF
5.115521520000000,0,0xFF,0xFF
5.115537920000000,0,0xFF,0xFF
5.115554360000000,0,0xFF,0xFF
5.115570760000000,0,0xFF,0xFF
5.115587200000000,0,0xFF,0xFF
5.115603600000000,0,0xFF,0xFF
5.115620000000000,0,0xFF,0xFF
5.115636440000000,0,0xFF,0xFF
5.115652840000000,0,0xFF,0xFF
5.115669280000000,0,0xFF,0xFF
5.115685680000000,0,0xFF,0xFF
5.115702080000000,0,0xFF,0xFF
5.115718520000000,0,0xFF,0xFF
5.115734920000000,0,0xFF,0xFF
5.115751360000000,0,0xFF,0xFF
5.115767760000000,0,0xFF,0xFF
5.115784160000000,0,0xFF,0xFF
5.115800600000000,0,0xFF,0xFF
5.115817000000000,0,0xFF,0xFF
5.115833440000000,0,0xFF,0xFF
5.115849840000000,0,0xFF,0xFF
5.115866240000000,0,0xFF,0xFF
5.115882680000000,0,0xFF,0xFF
5.115899080000000,0,0xFF,0xFF
5.115915480000000,0,0xFF,0xFF
5.115931920000000,0,0xFF,0xFF
5.115948320000000,0,0xFF,0xFF
5.115964760000000,0,0xFF,0xFF
5.115981160000000,0,0xFF,0xFF
5.115997560000000,0,0xFF,0xFF
5.116014000000000,0,0xFF,0xFF
5.116030400000000,0,0xFF,0xFF
5.116046840000000,0,0xFF,0xFF
5.116063240000000,0,0xFF,0xFF
5.116079640000000,0,0xFF,0xFF
5.116096080000000,0,0xFF,0xFF
5.116112480000000,0,0xFF,0xFF
5.116128920000000,0,0xFF,0xFF
5.116145320000000,0,0xFF,0xFF
5.116161720000000,0,0xFF,0xFF
5.116178160000000,0,0xFF,0xFF
5.116194560000000,0,0xFF,0xFF
5.116211000000000,0,0xFF,0xFF
5.116227400000000,0,0xFF,0xFF
5.116243800000000,0,0xFF,0xFF
5.116260240000000,0,0xFF,0xFF
5.116276640000000,0,0xFF,0xFF
5.116293080000000,0,0xFF,0xFF
5.116309480000000,0,0xFF,0xFF
5.116325880000000,0,0xFF,0xFF
5.116342320000000,0,0xFF,0xFF
5.116358720000000,0,0xFF,0xFF
5.116375160000000,0,0xFF,0xFF
5.116391560000000,0,0xFF,0xFF
5.116407960000000,0,0xFF,0xFF
5.116424400000000,0,0xFF,0xFF
5.116440800000000,0,0xFF,0xFF
5.116457240000000,0,0xFF,0xFF
5.116473640000000,0,0xFF,0xFF
5.116490040000000,0,0xFF,0xFF
5.116506480000000,0,0xFF,0xFF
5.116522880000000,0,0xFF,0xFF
5.116539280000000,0,0xFF,0xFF
5.116555720000000,0,0xFF,0xFF
5.116572120000000,0,0xFF,0xFF
5.116588560000000,0,0xFF,0xFF
5.116604960000000,0,0xFF,0xFF
5.116621360000000,0,0xFF,0xFF
5.116637800000000,0,0x00,0xFF
5.116654200000000,0,0x00,0xFF
5.116670640000000,0,0x00,0xFF
5.116687040000000,0,0x03,0xFF
5.116703440000000,0,0xFF,0xFF
5.116719880000000,0,0xFF,0xFF
5.116736280000000,0,0xFF,0xFF
5.116752720000000,0,0xFF,0xFF
5.116769120000000,0,0xFF,0xFF
5.116785520000000,0,0xFF,0xFF
5.116801960000000,0,0xFF,0xFF
5.116818360000000,0,0xFF,0xFF
5.116834800000000,0,0xFF,0xFF
5.116851200000000,0,0xFF,0xFF
5.116867600000000,0,0xFF,0xFF
5.116884040000000,0,0xFF,0xFF
5.116900440000000,0,0xFF,0xFF
5.116916880000000,0,0x00,0xFF
5.116933280000000,0,0x00,0xFF
5.116949680000000,0,0x00,0xFF
5.116966120000000,0,0x03,0xFF
5.116982520000000,0,0xFF,0xFF
5.116998960000000,0,0xFF,0xFF
5.117015360000000,0,0xFF,0xFF
5.117031760000000,0,0xFF,0xFF
5.117048200000000,0,0xFF,0xFF
5.117064600000000,0,0xFF,0xFF
5.117081040000000,0,0xFF,0xFF
5.117097440000000,0,0xFF,0xFF
5.117113840000000,0,0xFF,0xFF
5.117130280000000,0,0xFF,0xFF
5.117146680000000,0,0xFF,0xFF
5.117163080000000,0,0xFF,0xFF
5.117179520000000,0,0xFF,0xFF
5.117195920000000,0,0x3F,0xFF
5.117212360000000,0,0xFF,0xFF
5.117228760000000,0,0xFF,0xFF
5.117245160000000,0,0xF3,0xFF
5.117261600000000,0,0xFF,0xFF
5.117278000000000,0,0xFF,0xFF
5.117294440000000,0,0xFF,0xFF
5.117310840000000,0,0xFF,0xFF
5.117327240000000,0,0xFF,0xFF
5.117343680000000,0,0xFF,0xFF
5.117360080000000,0,0xFF,0xFF
5.117376520000000,0,0xFF,0xFF
5.117392920000000,0,0xFF,0xFF
5.117409320000000,0,0xFF,0xFF
5.117425760000000,0,0xFF,0xFF
5.117442160000000,0,0xFF,0xFF
5.117458600000000,0,0xFF,0xFF
5.117475000000000,0,0x3F,0xFF
5.117491400000000,0,0xFF,0xFF
5.117507840000000,0,0xFF,0xFF
5.117524240000000,0,0xF3,0xFF
5.117540680000000,0,0xFF,0xFF
5.117557080000000,0,0xFF,0xFF
5.117573480000000,0,0xFF,0xFF
5.117589920000000,0,0xFF,0xFF
5.117606320000000,0,0xFF,0xFF
5.117622760000000,0,0xFF,0xFF
5.117639160000000,0,0xFF,0xFF
5.117655560000000,0,0xFF,0xFF
5.117672000000000,0,0xFF,0xFF
5.117688400000000,0,0xFF,0xFF
5.117704840000000,0,0xFF,0xFF
5.117721240000000,0,0xFF,0xFF
5.117737640000000,0,0xFF,0xFF
5.117754080000000,0,0x3F,0xFF
5.117770480000000,0,0xFF,0xFF
5.117786880000000,0,0xFF,0xFF
5.117803320000000,0,0xF3,0xFF
5.117819720000000,0,0xFF,0xFF
5.117836160000000,0,0xFF,0xFF
5.117852560000000,0,0xFF,0xFF
5.117868960000000,0,0xFF,0xFF
5.117885400000000,0,0xFF,0xFF
5.117901800000000,0,0xFF,0xFF
5.117918240000000,0,0xFF,0xFF
5.117934640000000,0,0xFF,0xFF
5.117951040000000,0,0xFF,0xFF
5.117967480000000,0,0xFF,0xFF
5.117983880000000,0,0xFF,0xFF
5.118000320000000,0,0xFF,0xFF
5.118016720000000,0,0xFF,0xFF
5.118033120000000,0,0x3F,0xFF
5.118049560000000,0,0xFF,0xFF
5.118065960000000,0,0xFF,0xFF
5.118082400000000,0,0xF3,0xFF
5.118098800000000,0,0xFF,0xFF
5.118115200000000,0,0xFF,0xFF
5.118131640000000,0,0xFF,0xFF
5.118148040000000,0,0xFF,0xFF
5.118164480000000,0,0xFF,0xFF
5.118180880000000,0,0xFF,0xFF
5.118197280000000,0,0xFF,0xFF
5.118213720000000,0,0xFF,0xFF
5.118230120000000,0,0xFF,0xFF
5.118246560000000,0,0xFF,0xFF
5.118262960000000,0,0xFF,0xFF
5.118279360000000,0,0xFF,0xFF
5.118295800000000,0,0xFF,0xFF
5.118312200000000,0,0x3C,0xFF
5.118328640000000,0,0x07,0xFF
5.118345040000000,0,0x80,0xFF
5.118361440000000,0,0xF3,0xFF
5.118377880000000,0,0xFF,0xFF
5.118394280000000,0,0xFF,0xFF
5.118410680000000,0,0xFF,0xFF
5.118427120000000,0,0xFF,0xFF
5.118443520000000,0,0xFF,0xFF
5.118459960000000,0,0xFF,0xFF
5.118476360000000,0,0xFF,0xFF
5.118492760000000,0,0xFF,0xFF
5.118509200000000,0,0xFF,0xFF
5.118525600000000,0,0xFF,0xFF
5.118542040000000,0,0xFF,0xFF
5.118558440000000,0,0xFF,0xFF
5.118574840000000,0,0xFF,0xFF
5.118591280000000,0,0x3C,0xFF
5.118607680000000,0,0x07,0xFF
5.118624120000000,0,0x80,0xFF
5.118640520000000,0,0xF3,0xFF
5.118656920000000,0,0xFF,0xFF
5.118673360000000,0,0xFF,0xFF
5.118689760000000,0,0xFF,0xFF
5.118706200000000,0,0xFF,0xFF
5.118722600000000,0,0xFF,0xFF
5.118739000000000,0,0xFF,0xFF
5.118755440000000,0,0xFF,0xFF
5.118771840000000,0,0xFF,0xFF
5.118788280000000,0,0xFF,0xFF
5.118804680000000,0,0xFF,0xFF
5.118821080000000,0,0xFF,0xFF
5.118837520000000,0,0xFF,0xFF
5.118853920000000,0,0xFF,0xFF
5.118870360000000,0,0x3C,0xFF
5.118886760000000,0,0xE7,0xFF
5.118903160000000,0,0x9C,0xFF
5.118919600000000,0,0xF3,0xFF
5.118936000000000,0,0xFF,0xFF
5.118952400000000,0,0xFF,0xFF
5.118968840000000,0,0xFF,0xFF
5.118985240000000,0,0xFF,0xFF
5.119001680000000,0,0xFF,0xFF
5.119018080000000,0,0xFF,0xFF
5.119034480000000,0,0xFF,0xFF
5.119050920000000,0,0xFF,0xFF
5.119067320000000,0,0xFF,0xFF
5.119083760000000,0,0xFF,0xFF
5.119100160000000,0,0xFF,0xFF
5.119116560000000,0,0xFF,0xFF
5.119133000000000,0,0xFF,0xFF
5.119149400000000,0,0x3C,0xFF
5.119165840000000,0,0xE0,0xFF
5.119182240000000,0,0x1C,0xFF
5.119198640000000,0,0xF3,0xFF
5.119215080000000,0,0xFF,0xFF
5.119231480000000,0,0xFF,0xFF
5.119247920000000,0,0xFF,0xFF
5.119264320000000,0,0xFF,0xFF
5.119280720000000,0,0xFF,0xFF
5.119297160000000,0,0xFF,0xFF
5.119313560000000,0,0xFF,0xFF
5.119330000000000,0,0xFF,0xFF
5.119346400000000,0,0xFF,0xFF
5.119362800000000,0,0xFF,0xFF
5.119379240000000,0,0xFF,0xFF
5.119395640000000,0,0xFF,0xFF
5.119412080000000,0,0xFF,0xFF
5.119428480000000,0,0x3C,0xFF
5.119444880000000,0,0xF0,0xFF
5.119461320000000,0,0x1C,0xFF
5.119477720000000,0,0xF3,0xFF
5.119494160000000,0,0xFF,0xFF
5.119510560000000,0,0xFF,0xFF
5.119526960000000,0,0xFF,0xFF
5.119543400000000,0,0xFF,0xFF
5.119559800000000,0,0xFF,0xFF
5.119576200000000,0,0xFF,0xFF
5.119592640000000,0,0xFF,0xFF
5.119609040000000,0,0xFF,0xFF
5.119625480000000,0,0xFF,0xFF
5.119641880000000,0,0xFF,0xFF
5.119658280000000,0,0xFF,0xFF
5.119674720000000,0,0xFF,0xFF
5.119691120000000,0,0xFF,0xFF
5.119707560000000,0,0x00,0xFF
5.119723960000000,0,0x00,0xFF
5.119740360000000,0,0x00,0xFF
5.119756800000000,0,0x03,0xFF
5.119773200000000,0,0xFF,0xFF
5.119789640000000,0,0xFF,0xFF
5.119806040000000,0,0xFF,0xFF
5.119822440000000,0,0xFF,0xFF
5.119838880000000,0,0xFF,0xFF
5.119855280000000,0,0xFF,0xFF
5.119871720000000,0,0xFF,0xFF
5.119888120000000,0,0xFF,0xFF
5.119904520000000,0,0xFF,0xFF
5.119920960000000,0,0xFF,0xFF
5.119937360000000,0,0xFF,0xFF
5.119953800000000,0,0xFF,0xFF
5.119970200000000,0,0xFF,0xFF
5.119986600000000,0,0x00,0xFF
5.120003040000000,0,0x00,0xFF
5.120019440000000,0,0x01,0xFF
5.120035880000000,0,0xFF,0xFF
5.120052280000000,0,0xFF,0xFF
5.120068680000000,0,0xFF,0xFF
5.120085120000000,0,0xFF,0xFF
5.120101520000000,0,0xFF,0xFF
5.120117960000000,0,0xFF,0xFF
5.120134360000000,0,0xFF,0xFF
5.120150760000000,0,0xFF,0xFF
5.120167200000000,0,0xFF,0xFF
5.120183600000000,0,0xFF,0xFF
5.120200000000000,0,0xFF,0xFF
5.120216440000000,0,0xFF,0xFF
5.120232840000000,0,0xFF,0xFF
5.120249280000000,0,0xFF,0xFF
5.120265680000000,0,0x3F,0xFF
5.120282080000000,0,0xFF,0xFF
5.120298520000000,0,0xFD,0xFF
5.120314920000000,0,0xFF,0xFF
5.120331360000000,0,0xFF,0xFF
5.120347760000000,0,0xFF,0xFF
5.120364160000000,0,0xFF,0xFF
5.120380600000000,0,0xFF,0xFF
5.120397000000000,0,0xFF,0xFF
5.120413440000000,0,0xFF,0xFF
5.120429840000000,0,0xFF,0xFF
5.120446240000000,0,0xFF,0xFF
5.120462680000000,0,0xFF,0xFF
5.120479080000000,0,0xFF,0xFF
5.120495520000000,0,0xFF,0xFF
5.120511920000000,0,0xFF,0xFF
5.120528320000000,0,0xFF,0xFF
5.120544760000000,0,0x3F,0xFF
5.120561160000000,0,0xFF,0xFF
5.120577600000000,0,0xFD,0xFF
5.120594000000000,0,0xFF,0xFF
5.120610400000000,0,0xFF,0xFF
5.120626840000000,0,0xFF,0xFF
5.120643240000000,0,0xFF,0xFF
5.120659680000000,0,0xFF,0xFF
5.120676080000000,0,0xFF,0xFF
5.120692480000000,0,0xFF,0xFF
5.120708920000000,0,0xFF,0xFF
5.120725320000000,0,0xFF,0xFF
5.120741760000000,0,0xFF,0xFF
5.120758160000000,0,0xFF,0xFF
5.120774560000000,0,0xFF,0xFF
5.120791000000000,0,0xFF,0xFF
5.120807400000000,0,0xFF,0xFF
5.120823800000000,0,0x3F,0xFF
5.120840240000000,0,0xFF,0xFF
5.120856640000000,0,0xFD,0xFF
5.120873080000000,0,0xFF,0xFF
5.120889480000000,0,0xFF,0xFF
5.120905880000000,0,0xFF,0xFF
5.120922320000000,0,0xFF,0xFF
5.120938720000000,0,0xFF,0xFF
5.120955160000000,0,0xFF,0xFF
5.120971560000000,0,0xFF,0xFF
5.120987960000000,0,0xFF,0xFF
5.121004400000000,0,0xFF,0xFF
5.121020800000000,0,0xFF,0xFF
5.121037240000000,0,0xFF,0xFF
5.121053640000000,0,0xFF,0xFF
5.121070040000000,0,0xFF,0xFF
5.121086480000000,0,0xFF,0xFF
5.121102880000000,0,0x3F,0xFF
5.121119320000000,0,0xFF,0xFF
5.121135720000000,0,0xF9,0xFF
5.121152120000000,0,0xFF,0xFF
5.121168560000000,0,0xFF,0xFF
5.121184960000000,0,0xFF,0xFF
5.121201400000000,0,0xFF,0xFF
5.121217800000000,0,0xFF,0xFF
5.121234200000000,0,0xFF,0xFF
5.121250640000000,0,0xFF,0xFF
5.121267040000000,0,0xFF,0xFF
5.121283480000000,0,0xFF,0xFF
5.121299880000000,0,0xFF,0xFF
5.121316280000000,0,0xFF,0xFF
5.121332720000000,0,0xFF,0xFF
5.121349120000000,0,0xFF,0xFF
5.121365520000000,0,0xFF,0xFF
5.121381960000000,0,0x00,0xFF
5.121398360000000,0,0x00,0xFF
5.121414800000000,0,0x39,0xFF
5.121431200000000,0,0xFF,0xFF
5.121447600000000,0,0xFF,0xFF
5.121464040000000,0,0xFF,0xFF
5.121480440000000,0,0xFF,0xFF
5.121496880000000,0,0xFF,0xFF
5.121513280000000,0,0xFF,0xFF
5.121529680000000,0,0xFF,0xFF
5.121546120000000,0,0xFF,0xFF
5.121562520000000,0,0xFF,0xFF
5.121578960000000,0,0xFF,0xFF
5.121595360000000,0,0xFF,0xFF
5.121611760000000,0,0xFF,0xFF
5.121628200000000,0,0xFF,0xFF
5.121644600000000,0,0xFF,0xFF
5.121661040000000,0,0x3F,0xFF
5.121677440000000,0,0xFF,0xFF
5.121693840000000,0,0xFD,0xFF
5.121710280000000,0,0xFF,0xFF
5.121726680000000,0,0xFF,0xFF
5.121743120000000,0,0xFF,0xFF
5.121759520000000,0,0xFF,0xFF
5.121775920000000,0,0xFF,0xFF
5.121792360000000,0,0xFF,0xFF
5.121808760000000,0,0xFF,0xFF
5.121825200000000,0,0xFF,0xFF
5.121841600000000,0,0xFF,0xFF
5.121858000000000,0,0xFF,0xFF
5.121874440000000,0,0xFF,0xFF
5.121890840000000,0,0xFF,0xFF
5.121907280000000,0,0xFF,0xFF
5.121923680000000,0,0xFF,0xFF
5.121940080000000,0,0x3F,0xFF
5.121956520000000,0,0xFF,0xFF
5.121972920000000,0,0xFC,0xFF
5.121989320000000,0,0xFF,0xFF
5.122005760000000,0,0xFF,0xFF
5.122022160000000,0,0xFF,0xFF
5.122038600000000,0,0xFF,0xFF
5.122055000000000,0,0xFF,0xFF
5.122071400000000,0,0xFF,0xFF
5.122087840000000,0,0xFF,0xFF
5.122104240000000,0,0xFF,0xFF
5.122120680000000,0,0xFF,0xFF
5.122137080000000,0,0xFF,0xFF
5.122153480000000,0,0xFF,0xFF
5.122169920000000,0,0xFF,0xFF
5.122186320000000,0,0xFF,0xFF
5.122202760000000,0,0xFF,0xFF
5.122219160000000,0,0x3F,0xFF
5.122235560000000,0,0xFF,0xFF
5.122252000000000,0,0xF9,0xFF
5.122268400000000,0,0xFF,0xFF
5.122284840000000,0,0xFF,0xFF
5.122301240000000,0,0xFF,0xFF
5.122317640000000,0,0xFF,0xFF
5.122334080000000,0,0xFF,0xFF
5.122350480000000,0,0xFF,0xFF
5.122366920000000,0,0xFF,0xFF
5.122383320000000,0,0xFF,0xFF
5.122399720000000,0,0xFF,0xFF
5.122416160000000,0,0xFF,0xFF
5.122432560000000,0,0xFF,0xFF
5.122449000000000,0,0xFF,0xFF
5.122465400000000,0,0xFF,0xFF
5.122481800000000,0,0xFF,0xFF
5.122498240000000,0,0x3F,0xFF
5.122514640000000,0,0xFF,0xFF
5.122531080000000,0,0xF1,0xFF
5.122547480000000,0,0xFF,0xFF
5.122563880000000,0,0xFF,0xFF
5.122580320000000,0,0xFF,0xFF
5.122596720000000,0,0xFF,0xFF
5.122613120000000,0,0xFF,0xFF
5.122629560000000,0,0xFF,0xFF
5.122645960000000,0,0xFF,0xFF
5.122662400000000,0,0xFF,0xFF
5.122678800000000,0,0xFF,0xFF
5.122695200000000,0,0xFF,0xFF
5.122711640000000,0,0xFF,0xFF
5.122728040000000,0,0xFF,0xFF
5.122744480000000,0,0xFF,0xFF
5.122760880000000,0,0xFF,0xFF
5.122777280000000,0,0x00,0xFF
5.122793720000000,0,0x00,0xFF
5.122810120000000,0,0x01,0xFF
5.122826560000000,0,0xFF,0xFF
5.122842960000000,0,0xFF,0xFF
5.122859360000000,0,0xFF,0xFF
5.122875800000000,0,0xFF,0xFF
5.122892200000000,0,0xFF,0xFF
5.122908640000000,0,0xFF,0xFF
5.122925040000000,0,0xFF,0xFF
5.122941440000000,0,0xFF,0xFF
5.122957880000000,0,0xFF,0xFF
5.122974280000000,0,0xFF,0xFF
5.122990720000000,0,0xFF,0xFF
5.123007120000000,0,0xFF,0xFF
5.123023520000000,0,0xFF,0xFF
5.123039960000000,0,0xFF,0xFF
5.123056360000000,0,0x00,0xFF
5.123072800000000,0,0x00,0xFF
5.123089200000000,0,0x00,0xFF
5.123105600000000,0,0x3F,0xFF
5.123122040000000,0,0xFF,0xFF
5.123138440000000,0,0xFF,0xFF
5.123154880000000,0,0xFF,0xFF
5.123171280000000,0,0xFF,0xFF
5.123187680000000,0,0xFF,0xFF
5.123204120000000,0,0xFF,0xFF
5.123220520000000,0,0xFF,0xFF
5.123236920000000,0,0xFF,0xFF
5.123253360000000,0,0xFF,0xFF
5.123269760000000,0,0xFF,0xFF
5.123286200000000,0,0xFF,0xFF
5.123302600000000,0,0xFF,0xFF
5.123319000000000,0,0xFF,0xFF
5.123335440000000,0,0xE0,0xFF
5.123351840000000,0,0x00,0xFF
5.123368280000000,0,0x3C,0xFF
5.123384680000000,0,0x0F,0xFF
5.123401080000000,0,0xFF,0xFF
5.123417520000000,0,0xFF,0xFF
5.123433920000000,0,0xFF,0xFF
5.123450360000000,0,0xFF,0xFF
5.123466760000000,0,0xFF,0xFF
5.123483160000000,0,0xFF,0xFF
5.123499600000000,0,0xFF,0xFF
5.123516000000000,0,0xFF,0xFF
5.123532440000000,0,0xFF,0xFF
5.123548840000000,0,0xFF,0xFF
5.123565240000000,0,0xFF,0xFF
5.123581680000000,0,0xFF,0xFF
5.123598080000000,0,0xFF,0xFF
5.123614520000000,0,0x83,0xFF
5.123630920000000,0,0xFF,0xFF
5.123647320000000,0,0xFF,0xFF
5.123663760000000,0,0xCF,0xFF
5.123680160000000,0,0xFF,0xFF
5.123696600000000,0,0xFF,0xFF
5.123713000000000,0,0xFF,0xFF
5.123729400000000,0,0xFF,0xFF
5.123745840000000,0,0xFF,0xFF
5.123762240000000,0,0xFF,0xFF
5.123778640000000,0,0xFF,0xFF
5.123795080000000,0,0xFF,0xFF
5.123811480000000,0,0xFF,0xFF
5.123827920000000,0,0xFF,0xFF
5.123844320000000,0,0xFF,0xFF
5.123860720000000,0,0xFF,0xFF
5.123877160000000,0,0xFF,0xFF
5.123893560000000,0,0x1F,0xFF
5.123910000000000,0,0xFF,0xFF
5.123926400000000,0,0xFF,0xFF
5.123942800000000,0,0xCF,0xFF
5.123959240000000,0,0xFF,0xFF
5.123975640000000,0,0xFF,0xFF
5.123992080000000,0,0xFF,0xFF
5.124008480000000,0,0xFF,0xFF
5.124024880000000,0,0xFF,0xFF
5.124041320000000,0,0xFF,0xFF
5.124057720000000,0,0xFF,0xFF
5.124074160000000,0,0xFF,0xFF
5.124090560000000,0,0xFF,0xFF
5.124106960000000,0,0xFF,0xFF
5.124123400000000,0,0xFF,0xFF
5.124139800000000,0,0xFF,0xFF
5.124156240000000,0,0xFF,0xFF
5.124172640000000,0,0x3F,0xFF
5.124189040000000,0,0xFF,0xFF
5.124205480000000,0,0xFF,0xFF
5.124221880000000,0,0xCF,0xFF
5.124238320000000,0,0xFF,0xFF
5.124254720000000,0,0xFF,0xFF
5.124271120000000,0,0xFF,0xFF
5.124287560000000,0,0xFF,0xFF
5.124303960000000,0,0xFF,0xFF
5.124320400000000,0,0xFF,0xFF
5.124336800000000,0,0xFF,0xFF
5.124353200000000,0,0xFF,0xFF
5.124369640000000,0,0xFF,0xFF
5.124386040000000,0,0xFF,0xFF
5.124402440000000,0,0xFF,0xFF
5.124418880000000,0,0xFF,0xFF
5.124435280000000,0,0xFF,0xFF
5.124451720000000,0,0x3F,0xFF
5.124468120000000,0,0xFF,0xFF
5.124484520000000,0,0xFF,0xFF
5.124500960000000,0,0xCF,0xFF
5.124517360000000,0,0xFF,0xFF
5.124533800000000,0,0xFF,0xFF
5.124550200000000,0,0xFF,0xFF
5.124566600000000,0,0xFF,0xFF
5.124583040000000,0,0xFF,0xFF
5.124599440000000,0,0xFF,0xFF
5.124615880000000,0,0xFF,0xFF
5.124632280000000,0,0xFF,0xFF
5.124648680000000,0,0xFF,0xFF
5.124665120000000,0,0xFF,0xFF
5.124681520000000,0,0xFF,0xFF
5.124697960000000,0,0xFF,0xFF
5.124714360000000,0,0xFF,0xFF
5.124730760000000,0,0x7C,0xFF
5.124747200000000,0,0x00,0xFF
5.124763600000000,0,0x3C,0xFF
5.124780040000000,0,0x0F,0xFF
5.124796440000000,0,0xFF,0xFF
5.124812840000000,0,0xFF,0xFF
5.124829280000000,0,0xFF,0xFF
5.124845680000000,0,0xFF,0xFF
5.124862120000000,0,0xFF,0xFF
5.124878520000000,0,0xFF,0xFF
5.124894920000000,0,0xFF,0xFF
5.124911360000000,0,0xFF,0xFF
5.124927760000000,0,0xFF,0xFF
5.124944200000000,0,0xFF,0xFF
5.124960600000000,0,0xFF,0xFF
5.124977000000000,0,0xFF,0xFF
5.124993440000000,0,0xFF,0xFF
5.125009840000000,0,0x78,0xFF
5.125026240000000,0,0x00,0xFF
5.125042680000000,0,0x3C,0xFF
5.125059080000000,0,0x0F,0xFF
5.125075520000000,0,0xFF,0xFF
5.125091920000000,0,0xFF,0xFF
5.125108320000000,0,0xFF,0xFF
5.125124760000000,0,0xFF,0xFF
5.125141160000000,0,0xFF,0xFF
5.125157600000000,0,0xFF,0xFF
5.125174000000000,0,0xFF,0xFF
5.125190400000000,0,0xFF,0xFF
5.125206840000000,0,0xFF,0xFF
5.125223240000000,0,0xFF,0xFF
5.125239680000000,0,0xFF,0xFF
5.125256080000000,0,0xFF,0xFF
5.125272480000000,0,0xFF,0xFF
5.125288920000000,0,0x38,0xFF
5.125305320000000,0,0x00,0xFF
5.125321760000000,0,0x18,0xFF
5.125338160000000,0,0xFF,0xFF
5.125354560000000,0,0xFF,0xFF
5.125371000000000,0,0xFF,0xFF
5.125387400000000,0,0xFF,0xFF
5.125403840000000,0,0xFF,0xFF
5.125420240000000,0,0xFF,0xFF
5.125436640000000,0,0xFF,0xFF
5.125453080000000,0,0xFF,0xFF
5.125469480000000,0,0xFF,0xFF
5.125485920000000,0,0xFF,0xFF
5.125502320000000,0,0xFF,0xFF
5.125518720000000,0,0xFF,0xFF
5.125535160000000,0,0xFF,0xFF
5.125551560000000,0,0xFF,0xFF
5.125568000000000,0,0x00,0xFF
5.125584400000000,0,0x00,0xFF
5.125600800000000,0,0x01,0xFF
5.125617240000000,0,0xFF,0xFF
5.125633640000000,0,0xFF,0xFF
5.125650040000000,0,0xFF,0xFF
5.125666480000000,0,0xFF,0xFF
5.125682880000000,0,0xFF,0xFF
5.125699320000000,0,0xFF,0xFF
5.125715720000000,0,0xFF,0xFF
5.125732120000000,0,0xFF,0xFF
5.125748560000000,0,0xFF,0xFF
5.125764960000000,0,0xFF,0xFF
5.125781400000000,0,0xFF,0xFF
5.125797800000000,0,0xFF,0xFF
5.125814200000000,0,0xFF,0xFF
5.125830640000000,0,0xFF,0xFF
5.125847040000000,0,0x87,0xFF
5.125863480000000,0,0xFF,0xFF
5.125879880000000,0,0xC3,0xFF
5.125896280000000,0,0xFF,0xFF
5.125912720000000,0,0xFF,0xFF
5.125929120000000,0,0xFF,0xFF
5.125945560000000,0,0xFF,0xFF
5.125961960000000,0,0xFF,0xFF
5.125978360000000,0,0xFF,0xFF
5.125994800000000,0,0xFF,0xFF
5.126011200000000,0,0xFF,0xFF
5.126027640000000,0,0xFF,0xFF
5.126044040000000,0,0xFF,0xFF
5.126060440000000,0,0xFF,0xFF
5.126076880000000,0,0xFF,0xFF
5.126093280000000,0,0xFF,0xFF
5.126109720000000,0,0xFF,0xFF
5.126126120000000,0,0x1F,0xFF
5.126142520000000,0,0xFF,0xFF
5.126158960000000,0,0xF1,0xFF
5.126175360000000,0,0xFF,0xFF
5.126191800000000,0,0xFF,0xFF
5.126208200000000,0,0xFF,0xFF
5.126224600000000,0,0xFF,0xFF
5.126241040000000,0,0xFF,0xFF
5.126257440000000,0,0xFF,0xFF
5.126273840000000,0,0xFF,0xFF
5.126290280000000,0,0xFF,0xFF
5.126306680000000,0,0xFF,0xFF
5.126323120000000,0,0xFF,0xFF
5.126339520000000,0,0xFF,0xFF
5.126355920000000,0,0xFF,0xFF
5.126372360000000,0,0xFF,0xFF
5.126388760000000,0,0xFF,0xFF
5.126405200000000,0,0x3F,0xFF
5.126421600000000,0,0xFF,0xFF
5.126438000000000,0,0xF9,0xFF
5.126454440000000,0,0xFF,0xFF
5.126470840000000,0,0xFF,0xFF
5.126487280000000,0,0xFF,0xFF
5.126503680000000,0,0xFF,0xFF
5.126520080000000,0,0xFF,0xFF
5.126536520000000,0,0xFF,0xFF
5.126552920000000,0,0xFF,0xFF
5.126569360000000,0,0xFF,0xFF
5.126585760000000,0,0xFF,0xFF
5.126602160000000,0,0xFF,0xFF
5.126618600000000,0,0xFF,0xFF
5.126635000000000,0,0xFF,0xFF
5.126651440000000,0,0xFF,0xFF
5.126667840000000,0,0xFF,0xFF
5.126684240000000,0,0x3F,0xFF
5.126700680000000,0,0xFF,0xFF
5.126717080000000,0,0xFD,0xFF
5.126733520000000,0,0xFF,0xFF
5.126749920000000,0,0xFF,0xFF
5.126766320000000,0,0xFF,0xFF
5.126782760000000,0,0xFF,0xFF
5.126799160000000,0,0xFF,0xFF
5.126815560000000,0,0xFF,0xFF
5.126832000000000,0,0xFF,0xFF
5.126848400000000,0,0xFF,0xFF
5.126864840000000,0,0xFF,0xFF
5.126881240000000,0,0xFF,0xFF
5.126897640000000,0,0xFF,0xFF
5.126914080000000,0,0xFF,0xFF
5.126930480000000,0,0xFF,0xFF
5.126946920000000,0,0xFF,0xFF
5.126963320000000,0,0x78,0xFF
5.126979720000000,0,0x1C,0xFF
5.126996160000000,0,0x3C,0xFF
5.127012560000000,0,0xFF,0xFF
5.127029000000000,0,0xFF,0xFF
5.127045400000000,0,0xFF,0xFF
5.127061800000000,0,0xFF,0xFF
5.127078240000000,0,0xFF,0xFF
5.127094640000000,0,0xFF,0xFF
5.127111080000000,0,0xFF,0xFF
5.127127480000000,0,0xFF,0xFF
5.127143880000000,0,0xFF,0xFF
5.127160320000000,0,0xFF,0xFF
5.127176720000000,0,0xFF,0xFF
5.127193160000000,0,0xFF,0xFF
5.127209560000000,0,0xFF,0xFF
5.127225960000000,0,0xFF,0xFF
5.127242400000000,0,0x78,0xFF
5.127258800000000,0,0x1C,0xFF
5.127275240000000,0,0x3C,0xFF
5.127291640000000,0,0xFF,0xFF
5.127308040000000,0,0xFF,0xFF
5.127324480000000,0,0xFF,0xFF
5.127340880000000,0,0xFF,0xFF
5.127357320000000,0,0xFF,0xFF
5.127373720000000,0,0xFF,0xFF
5.127390120000000,0,0xFF,0xFF
5.127406560000000,0,0xFF,0xFF
5.127422960000000,0,0xFE,0xFF
5.127439400000000,0,0x06,0xFF
5.127455800000000,0,0x7C,0xFF
5.127472200000000,0,0x07,0xFF
5.127488640000000,0,0xFF,0xFF
5.127505040000000,0,0xFF,0xFF
5.127521440000000,0,0x3F,0xFF
5.127537880000000,0,0x9F,0xFF
5.127554280000000,0,0xFD,0xFF
5.127570720000000,0,0xFF,0xFF
5.127587120000000,0,0xFF,0xFF
5.127603520000000,0,0xFF,0xFF
5.127619960000000,0,0xFF,0xFF
5.127636360000000,0,0xFF,0xFF
5.127652800000000,0,0xFF,0xFF
5.127669200000000,0,0xFF,0xFF
5.127685600000000,0,0xFF,0xFF
5.127702040000000,0,0xFC,0xFF
5.127718440000000,0,0x00,0xFF
5.127734880000000,0,0x00,0xFF
5.127751280000000,0,0x00,0xFF
5.127767680000000,0,0xFF,0xFF
5.127784120000000,0,0xFF,0xFF
5.127800520000000,0,0x3F,0xFF
5.127816960000000,0,0x9F,0xFF
5.127833360000000,0,0xF9,0xFF
5.127849760000000,0,0xFF,0xFF
5.127866200000000,0,0xFF,0xFF
5.127882600000000,0,0xFF,0xFF
5.127899040000000,0,0xFF,0xFF
5.127915440000000,0,0xFF,0xFF
5.127931840000000,0,0xFF,0xFF
5.127948280000000,0,0xFF,0xFF
5.127964680000000,0,0xFF,0xFF
5.127981120000000,0,0xFC,0xFF
5.127997520000000,0,0xF1,0xFF
5.128013920000000,0,0x83,0xFF
5.128030360000000,0,0xFC,0xFF
5.128046760000000,0,0x3F,0xFF
5.128063160000000,0,0xFF,0xFF
5.128079600000000,0,0x1F,0xFF
5.128096000000000,0,0x9F,0xFF
5.128112440000000,0,0xF1,0xFF
5.128128840000000,0,0xFF,0xFF
5.128145240000000,0,0xFF,0xFF
5.128161680000000,0,0xFF,0xFF
5.128178080000000,0,0xFF,0xFF
5.128194520000000,0,0xFF,0xFF
5.128210920000000,0,0xFF,0xFF
5.128227320000000,0,0xFF,0xFF
5.128243760000000,0,0xFF,0xFF
5.128260160000000,0,0xF9,0xFF
5.128276600000000,0,0xFB,0xFF
5.128293000000000,0,0xCF,0xFF
5.128309400000000,0,0xFF,0xFF
5.128325840000000,0,0x1F,0xFF
5.128342240000000,0,0xFF,0xFF
5.128358680000000,0,0x83,0xFF
5.128375080000000,0,0x9F,0xFF
5.128391480000000,0,0xC3,0xFF
5.128407920000000,0,0xFF,0xFF
5.128424320000000,0,0xFF,0xFF
5.128440760000000,0,0xFF,0xFF
5.128457160000000,0,0xFF,0xFF
5.128473560000000,0,0xFF,0xFF
5.128490000000000,0,0xFF,0xFF
5.128506400000000,0,0xFF,0xFF
5.128522840000000,0,0xFF,0xFF
5.128539240000000,0,0xF9,0xFF
5.128555640000000,0,0xFF,0xFF
5.128572080000000,0,0xFF,0xFF
5.128588480000000,0,0xFF,0xFF
5.128604920000000,0,0x9F,0xFF
5.128621320000000,0,0xFF,0xFF
5.128637720000000,0,0x80,0xFF
5.128654160000000,0,0x00,0xFF
5.128670560000000,0,0x01,0xFF
5.128686960000000,0,0xFF,0xFF
5.128703400000000,0,0xFF,0xFF
5.128719800000000,0,0xFF,0xFF
5.128736240000000,0,0xFF,0xFF
5.128752640000000,0,0xFF,0xFF
5.128769040000000,0,0xFF,0xFF
5.128785480000000,0,0xFF,0xFF
5.128801880000000,0,0xFF,0xFF
5.128818320000000,0,0xF9,0xFF
5.128834720000000,0,0xEF,0xFF
5.128851120000000,0,0xFF,0xFF
5.128867560000000,0,0xFF,0xFF
5.128883960000000,0,0x9F,0xFF
5.128900400000000,0,0xFF,0xFF
5.128916800000000,0,0x00,0xFF
5.128933200000000,0,0x00,0xFF
5.128949640000000,0,0x01,0xFF
5.128966040000000,0,0xFF,0xFF
5.128982480000000,0,0xFF,0xFF
5.128998880000000,0,0xFF,0xFF
5.129015280000000,0,0xFF,0xFF
5.129031720000000,0,0xFF,0xFF
5.129048120000000,0,0xFF,0xFF
5.129064560000000,0,0xFF,0xFF
5.129080960000000,0,0xFF,0xFF
5.129097360000000,0,0xF9,0xFF
5.129113800000000,0,0xC7,0xFF
5.129130200000000,0,0xBC,0xFF
5.129146640000000,0,0x03,0xFF
5.129163040000000,0,0xDF,0xFF
5.129179440000000,0,0xFF,0xFF
5.129195880000000,0,0x3F,0xFF
5.129212280000000,0,0xFF,0xFF
5.129228680000000,0,0xFD,0xFF
5.129245120000000,0,0xFF,0xFF
5.129261520000000,0,0xFF,0xFF
5.129277960000000,0,0xFF,0xFF
5.129294360000000,0,0xFF,0xFF
5.129310760000000,0,0xFF,0xFF
5.129327200000000,0,0xFF,0xFF
5.129343600000000,0,0xFF,0xFF
5.129360040000000,0,0xFF,0xFF
5.129376440000000,0,0xF9,0xFF
5.129392840000000,0,0xC7,0xFF
5.129409280000000,0,0xBC,0xFF
5.129425680000000,0,0x03,0xFF
5.129442120000000,0,0xDF,0xFF
5.129458520000000,0,0xFF,0xFF
5.129474920000000,0,0x3F,0xFF
5.129491360000000,0,0xFF,0xFF
5.129507760000000,0,0xFD,0xFF
5.129524200000000,0,0xFF,0xFF
5.129540600000000,0,0xFF,0xFF
5.129557000000000,0,0xFF,0xFF
5.129573440000000,0,0xFF,0xFF
5.129589840000000,0,0xFF,0xFF
5.129606280000000,0,0xFF,0xFF
5.129622680000000,0,0xFF,0xFF
5.129639080000000,0,0xFF,0xFF
5.129655520000000,0,0xF9,0xFF
5.129671920000000,0,0xCF,0xFF
5.129688360000000,0,0x1F,0xFF
5.129704760000000,0,0xFF,0xFF
5.129721160000000,0,0xDF,0xFF
5.129737600000000,0,0xFF,0xFF
5.129754000000000,0,0x3F,0xFF
5.129770440000000,0,0xFF,0xFF
5.129786840000000,0,0xFD,0xFF
5.129803240000000,0,0xFF,0xFF
5.129819680000000,0,0xFF,0xFF
5.129836080000000,0,0xFF,0xFF
5.129852520000000,0,0xFF,0xFF
5.129868920000000,0,0xFF,0xFF
5.129885320000000,0,0xFF,0xFF
5.129901760000000,0,0xFF,0xFF
5.129918160000000,0,0xFF,0xFF
5.129934560000000,0,0xF9,0xFF
5.129951000000000,0,0xCF,0xFF
5.129967400000000,0,0x1F,0xFF
5.129983840000000,0,0xFF,0xFF
5.130000240000000,0,0x9F,0xFF
5.130016640000000,0,0xFF,0xFF
5.130033080000000,0,0x3F,0xFF
5.130049480000000,0,0xFF,0xFF
5.130065920000000,0,0xF9,0xFF
5.130082320000000,0,0xFF,0xFF
5.130098720000000,0,0xFF,0xFF
5.130115160000000,0,0xFF,0xFF
5.130131560000000,0,0xFF,0xFF
5.130148000000000,0,0xFF,0xFF
5.130164400000000,0,0xFF,0xFF
5.130180800000000,0,0xFF,0xFF
5.130197240000000,0,0xFF,0xFF
5.130213640000000,0,0xF9,0xFF
5.130230080000000,0,0xFF,0xFF
5.130246480000000,0,0x0F,0xFF
5.130262880000000,0,0xFF,0xFF
5.130279320000000,0,0x1F,0xFF
5.130295720000000,0,0xFF,0xFF
5.130312160000000,0,0x00,0xFF
5.130328560000000,0,0x00,0xFF
5.130344960000000,0,0x79,0xFF
5.130361400000000,0,0xFF,0xFF
5.130377800000000,0,0xFF,0xFF
5.130394240000000,0,0xFF,0xFF
5.130410640000000,0,0xFF,0xFF
5.130427040000000,0,0xFF,0xFF
5.130443480000000,0,0xFF,0xFF
5.130459880000000,0,0xFF,0xFF
5.130476320000000,0,0xFF,0xFF
5.130492720000000,0,0xFC,0xFF
5.130509120000000,0,0xFF,0xFF
5.130525560000000,0,0x03,0xFF
5.130541960000000,0,0xFF,0xFF
5.130558360000000,0,0x9F,0xFF
5.130574800000000,0,0xFF,0xFF
5.130591200000000,0,0x80,0xFF
5.130607640000000,0,0x00,0xFF
5.130624040000000,0,0x39,0xFF
5.130640440000000,0,0xFF,0xFF
5.130656880000000,0,0xFF,0xFF
5.130673280000000,0,0xFF,0xFF
5.130689720000000,0,0xFF,0xFF
5.130706120000000,0,0xFF,0xFF
5.130722520000000,0,0xFF,0xFF
5.130738960000000,0,0xFF,0xFF
5.130755360000000,0,0xFF,0xFF
5.130771800000000,0,0xFC,0xFF
5.130788200000000,0,0x7E,0xFF
5.130804600000000,0,0x60,0xFF
5.130821040000000,0,0x03,0xFF
5.130837440000000,0,0x9F,0xFF
5.130853880000000,0,0xFF,0xFF
5.130870280000000,0,0xFF,0xFF
5.130886680000000,0,0xFF,0xFF
5.130903120000000,0,0x3D,0xFF
5.130919520000000,0,0xFF,0xFF
5.130935960000000,0,0xFF,0xFF
5.130952360000000,0,0xFF,0xFF
5.130968760000000,0,0xFF,0xFF
5.130985200000000,0,0xFF,0xFF
5.131001600000000,0,0xFF,0xFF
5.131018040000000,0,0xFF,0xFF
5.131034440000000,0,0xFF,0xFF
5.131050840000000,0,0xFE,0xFF
5.131067280000000,0,0x18,0xFF
5.131083680000000,0,0x00,0xFF
5.131100080000000,0,0x00,0xFF
5.131116520000000,0,0xCF,0xFF
5.131132920000000,0,0xFF,0xFF
5.131149360000000,0,0xFF,0xFF
5.131165760000000,0,0xFF,0xFF
5.131182160000000,0,0x01,0xFF
5.131198600000000,0,0xFF,0xFF
5.131215000000000,0,0xFF,0xFF
5.131231440000000,0,0xFF,0xFF
5.131247840000000,0,0xFF,0xFF
5.131264240000000,0,0xFF,0xFF
5.131280680000000,0,0xFF,0xFF
5.131297080000000,0,0xFF,0xFF
5.131313520000000,0,0xFF,0xFF
5.131329920000000,0,0xFF,0xFF
5.131346320000000,0,0x00,0xFF
5.131362760000000,0,0x00,0xFF
5.131379160000000,0,0x00,0xFF
5.131395600000000,0,0x1F,0xFF
5.131412000000000,0,0xFF,0xFF
5.131428400000000,0,0xFF,0xFF
5.131444840000000,0,0xFF,0xFF
5.131461240000000,0,0x01,0xFF
5.131477680000000,0,0xFF,0xFF
5.131494080000000,0,0xFF,0xFF
5.131510480000000,0,0xFF,0xFF
5.131526920000000,0,0xFF,0xFF
5.131543320000000,0,0xFF,0xFF
5.131559760000000,0,0xFF,0xFF
5.131576160000000,0,0xFF,0xFF
5.131592560000000,0,0xFF,0xFF
5.131609000000000,0,0xFF,0xFF
5.131625400000000,0,0xF0,0xFF
5.131641840000000,0,0xFF,0xFF
5.131658240000000,0,0xFE,0xFF
5.131674640000000,0,0x1F,0xFF
5.131691080000000,0,0xFF,0xFF
5.131707480000000,0,0xFF,0xFF
5.131723880000000,0,0xFF,0xFF
5.131740320000000,0,0xFF,0xFF
5.131756720000000,0,0xFF,0xFF
5.131773160000000,0,0xFF,0xFF
5.131789560000000,0,0xFF,0xFF
5.131805960000000,0,0xFF,0xFF
5.131822400000000,0,0xFF,0xFF
5.131838800000000,0,0xFF,0xFF
5.131855240000000,0,0xFF,0xFF
5.131871640000000,0,0xFF,0xFF
5.131888040000000,0,0xFF,0xFF
5.131904480000000,0,0xF3,0xFF
5.131920880000000,0,0xFF,0xFF
5.131937320000000,0,0xFF,0xFF
5.131953720000000,0,0x9F,0xFF
5.131970120000000,0,0xFF,0xFF
5.131986560000000,0,0xFF,0xFF
5.132002960000000,0,0xFF,0xFF
5.132019400000000,0,0xFF,0xFF
5.132035800000000,0,0xFF,0xFF
5.132052200000000,0,0xFF,0xFF
5.132068640000000,0,0xFF,0xFF
5.132085040000000,0,0xFF,0xFF
5.132101480000000,0,0xFF,0xFF
5.132117880000000,0,0xFF,0xFF
5.132134280000000,0,0xFF,0xFF
5.132150720000000,0,0xFF,0xFF
5.132167120000000,0,0xFF,0xFF
5.132183560000000,0,0xF3,0xFF
5.132199960000000,0,0xFF,0xFF
5.132216360000000,0,0xFF,0xFF
5.132232800000000,0,0xDF,0xFF
5.132249200000000,0,0xFF,0xFF
5.132265640000000,0,0xFF,0xFF
5.132282040000000,0,0xFF,0xFF
5.132298440000000,0,0xFF,0xFF
5.132314880000000,0,0xFF,0xFF
5.132331280000000,0,0xFF,0xFF
5.132347680000000,0,0xFF,0xFF
5.132364120000000,0,0xFF,0xFF
5.132380520000000,0,0xFF,0xFF
5.132396960000000,0,0xFF,0xFF
5.132413360000000,0,0xFF,0xFF
5.132429760000000,0,0xFF,0xFF
5.132446200000000,0,0xFF,0xFF
5.132462600000000,0,0xF7,0xFF
5.132479040000000,0,0xC1,0xFF
5.132495440000000,0,0xC3,0xFF
5.132511840000000,0,0xDF,0xFF
5.132528280000000,0,0xFF,0xFF
5.132544680000000,0,0xFF,0xFF
5.132561120000000,0,0xFF,0xFF
5.132577520000000,0,0x01,0xFF
5.132593920000000,0,0xFF,0xFF
5.132610360000000,0,0xFF,0xFF
5.132626760000000,0,0xFF,0xFF
5.132643200000000,0,0xFF,0xFF
5.132659600000000,0,0xFF,0xFF
5.132676000000000,0,0xFF,0xFF
5.132692440000000,0,0xFF,0xFF
5.132708840000000,0,0xFF,0xFF
5.132725280000000,0,0xFF,0xFF
5.132741680000000,0,0xF7,0xFF
5.132758080000000,0,0x81,0xFF
5.132774520000000,0,0xC3,0xFF
5.132790920000000,0,0xCF,0xFF
5.132807360000000,0,0xFF,0xFF
5.132823760000000,0,0xF8,0xFF
5.132840160000000,0,0x00,0xFF
5.132856600000000,0,0x38,0xFF
5.132873000000000,0,0x1F,0xFF
5.132889400000000,0,0xFF,0xFF
5.132905840000000,0,0xFF,0xFF
5.132922240000000,0,0xFF,0xFF
5.132938680000000,0,0xFF,0xFF
5.132955080000000,0,0xFF,0xFF
5.132971480000000,0,0xFF,0xFF
5.132987920000000,0,0xFF,0xFF
5.133004320000000,0,0xFF,0xFF
5.133020760000000,0,0xF3,0xFF
5.133037160000000,0,0xC1,0xFF
5.133053560000000,0,0xC7,0xFF
5.133070000000000,0,0xDF,0xFF
5.133086400000000,0,0xFF,0xFF
5.133102840000000,0,0xC0,0xFF
5.133119240000000,0,0x00,0xFF
5.133135640000000,0,0x3C,0xFF
5.133152080000000,0,0x0F,0xFF
5.133168480000000,0,0xFF,0xFF
5.133184920000000,0,0xFF,0xFF
5.133201320000000,0,0xFF,0xFF
5.133217720000000,0,0xFF,0xFF
5.133234160000000,0,0xFF,0xFF
5.133250560000000,0,0xFF,0xFF
5.133267000000000,0,0xFF,0xFF
5.133283400000000,0,0xFF,0xFF
5.133299800000000,0,0xF3,0xFF
5.133316240000000,0,0xF9,0xFF
5.133332640000000,0,0xFF,0xFF
5.133349080000000,0,0x9F,0xFF
5.133365480000000,0,0xFF,0xFF
5.133381880000000,0,0x87,0xFF
5.133398320000000,0,0xFF,0xFF
5.133414720000000,0,0xFF,0xFF
5.133431160000000,0,0xCF,0xFF
5.133447560000000,0,0xFF,0xFF
5.133463960000000,0,0xFF,0xFF
5.133480400000000,0,0xFF,0xFF
5.133496800000000,0,0xFF,0xFF
5.133513200000000,0,0xFF,0xFF
5.133529640000000,0,0xFF,0xFF
5.133546040000000,0,0xFF,0xFF
5.133562480000000,0,0xFF,0xFF
5.133578880000000,0,0xF1,0xFF
5.133595280000000,0,0xF9,0xFF
5.133611720000000,0,0xFF,0xFF
5.133628120000000,0,0x9F,0xFF
5.133644560000000,0,0xFF,0xFF
5.133660960000000,0,0x1F,0xFF
5.133677360000000,0,0xFF,0xFF
5.133693800000000,0,0xFF,0xFF
5.133710200000000,0,0xCF,0xFF
5.133726640000000,0,0xFF,0xFF
5.133743040000000,0,0xFF,0xFF
5.133759440000000,0,0xFF,0xFF
5.133775880000000,0,0xFF,0xFF
5.133792280000000,0,0xFF,0xFF
5.133808720000000,0,0xFF,0xFF
5.133825120000000,0,0xFF,0xFF
5.133841520000000,0,0xFF,0xFF
5.133857960000000,0,0xF8,0xFF
5.133874360000000,0,0xF9,0xFF
5.133890800000000,0,0xFC,0xFF
5.133907200000000,0,0x3F,0xFF
5.133923600000000,0,0xFF,0xFF
5.133940040000000,0,0x3F,0xFF
5.133956440000000,0,0xFF,0xFF
5.133972880000000,0,0xFF,0xFF
5.133989280000000,0,0xCF,0xFF
5.134005680000000,0,0xFF,0xFF
5.134022120000000,0,0xFF,0xFF
5.134038520000000,0,0xFF,0xFF
5.134054960000000,0,0xFF,0xFF
5.134071360000000,0,0xFF,0xFF
5.134087760000000,0,0xFF,0xFF
5.134104200000000,0,0xFF,0xFF
5.134120600000000,0,0xFF,0xFF
5.134137000000000,0,0xFC,0xFF
5.134153440000000,0,0x00,0xFF
5.134169840000000,0,0x00,0xFF
5.134186280000000,0,0x1F,0xFF
5.134202680000000,0,0xFF,0xFF
5.134219080000000,0,0x3F,0xFF
5.134235520000000,0,0xFF,0xFF
5.134251920000000,0,0xFF,0xFF
5.134268360000000,0,0xCF,0xFF
5.134284760000000,0,0xFF,0xFF
5.134301160000000,0,0xFF,0xFF
5.134317600000000,0,0xFF,0xFF
5.134334000000000,0,0xFF,0xFF
5.134350440000000,0,0xFF,0xFF
5.134366840000000,0,0xFF,0xFF
5.134383240000000,0,0xFF,0xFF
5.134399680000000,0,0xFF,0xFF
5.134416080000000,0,0xFE,0xFF
5.134432520000000,0,0x00,0xFF
5.134448920000000,0,0x03,0xFF
5.134465320000000,0,0x81,0xFF
5.134481760000000,0,0xFF,0xFF
5.134498160000000,0,0x7C,0xFF
5.134514600000000,0,0x00,0xFF
5.134531000000000,0,0x3C,0xFF
5.134547400000000,0,0x0F,0xFF
5.134563840000000,0,0xFF,0xFF
5.134580240000000,0,0xFF,0xFF
5.134596680000000,0,0xFF,0xFF
5.134613080000000,0,0xFF,0xFF
5.134629480000000,0,0xFF,0xFF
5.134645920000000,0,0xFF,0xFF
5.134662320000000,0,0xFF,0xFF
5.134678760000000,0,0xFF,0xFF
5.134695160000000,0,0xFC,0xFF
5.134711560000000,0,0x00,0xFF
5.134728000000000,0,0x03,0xFF
5.134744400000000,0,0xC0,0xFF
5.134760800000000,0,0xFF,0xFF
5.134777240000000,0,0x78,0xFF
5.134793640000000,0,0x00,0xFF
5.134810080000000,0,0x3C,0xFF
5.134826480000000,0,0x1F,0xFF
5.134842880000000,0,0xFF,0xFF
5.134859320000000,0,0xFF,0xFF
5.134875720000000,0,0xFF,0xFF
5.134892160000000,0,0xFF,0xFF
5.134908560000000,0,0xFF,0xFF
5.134924960000000,0,0xFF,0xFF
5.134941400000000,0,0xFF,0xFF
5.134957800000000,0,0xFF,0xFF
5.134974240000000,0,0xF8,0xFF
5.134990640000000,0,0xFF,0xFF
5.135007040000000,0,0xFF,0xFF
5.135023480000000,0,0xFC,0xFF
5.135039880000000,0,0xFF,0xFF
5.135056320000000,0,0x00,0xFF
5.135072720000000,0,0x00,0xFF
5.135089120000000,0,0x00,0xFF
5.135105560000000,0,0x0F,0xFF
5.135121960000000,0,0xFF,0xFF
5.135138400000000,0,0xFF,0xFF
5.135154800000000,0,0xFF,0xFF
5.135171200000000,0,0xFF,0xFF
5.135187640000000,0,0xFF,0xFF
5.135204040000000,0,0xFF,0xFF
5.135220480000000,0,0xFF,0xFF
5.135236880000000,0,0xFF,0xFF
5.135253280000000,0,0xF1,0xFF
5.135269720000000,0,0xFF,0xFF
5.135286120000000,0,0xFF,0xFF
5.135302560000000,0,0xFC,0xFF
5.135318960000000,0,0xFF,0xFF
5.135335360000000,0,0x00,0xFF
5.135351800000000,0,0x00,0xFF
5.135368200000000,0,0x00,0xFF
5.135384600000000,0,0x03,0xFF
5.135401040000000,0,0xFF,0xFF
5.135417440000000,0,0xFF,0xFF
5.135433880000000,0,0xFF,0xFF
5.135450280000000,0,0xFF,0xFF
5.135466680000000,0,0xFF,0xFF
5.135483120000000,0,0xFF,0xFF
5.135499520000000,0,0xFF,0xFF
5.135515960000000,0,0xFF,0xFF
5.135532360000000,0,0xF3,0xFF
5.135548760000000,0,0xFF,0xFF
5.135565200000000,0,0xFF,0xFF
5.135581600000000,0,0xFC,0xFF
5.135598040000000,0,0xFF,0xFF
5.135614440000000,0,0x3F,0xFF
5.135630840000000,0,0xFF,0xFF
5.135647280000000,0,0xFF,0xFF
5.135663680000000,0,0xF3,0xFF
5.135680120000000,0,0xFF,0xFF
5.135696520000000,0,0xFF,0xFF
5.135712920000000,0,0xFF,0xFF
5.135729360000000,0,0xFF,0xFF
5.135745760000000,0,0xFF,0xFF
5.135762200000000,0,0xFF,0xFF
5.135778600000000,0,0xFF,0xFF
5.135795000000000,0,0xFF,0xFF
5.135811440000000,0,0xF3,0xFF
5.135827840000000,0,0xFF,0xFF
5.135844280000000,0,0xFF,0xFF
5.135860680000000,0,0xFC,0xFF
5.135877080000000,0,0xFF,0xFF
5.135893520000000,0,0x3F,0xFF
5.135909920000000,0,0xFF,0xFF
5.135926320000000,0,0xFF,0xFF
5.135942760000000,0,0xF3,0xFF
5.135959160000000,0,0xFF,0xFF
5.135975600000000,0,0xFF,0xFF
5.135992000000000,0,0xFF,0xFF
5.136008400000000,0,0xFF,0xFF
5.136024840000000,0,0xFF,0xFF
5.136041240000000,0,0xFF,0xFF
5.136057680000000,0,0xFF,0xFF
5.136074080000000,0,0xFF,0xFF
5.136090480000000,0,0xF7,0xFF
5.136106920000000,0,0xC0,0xFF
5.136123320000000,0,0x03,0xFF
5.136139760000000,0,0xC0,0xFF
5.136156160000000,0,0xFF,0xFF
5.136172560000000,0,0x3F,0xFF
5.136189000000000,0,0xFF,0xFF
5.136205400000000,0,0xFF,0xFF
5.136221840000000,0,0xF3,0xFF
5.136238240000000,0,0xFF,0xFF
5.136254640000000,0,0xFF,0xFF
5.136271080000000,0,0xFF,0xFF
5.136287480000000,0,0xFF,0xFF
5.136303920000000,0,0xFF,0xFF
5.136320320000000,0,0xFF,0xFF
5.136336720000000,0,0xFF,0xFF
5.136353160000000,0,0xFF,0xFF
5.136369560000000,0,0xF7,0xFF
5.136386000000000,0,0x80,0xFF
5.136402400000000,0,0x03,0xFF
5.136418800000000,0,0xC1,0xFF
5.136435240000000,0,0xFF,0xFF
5.136451640000000,0,0x3F,0xFF
5.136468080000000,0,0xFF,0xFF
5.136484480000000,0,0xFF,0xFF
5.136500880000000,0,0xF3,0xFF
5.136517320000000,0,0xFF,0xFF
5.136533720000000,0,0xFF,0xFF
5.136550120000000,0,0xFF,0xFF
5.136566560000000,0,0xFF,0xFF
5.136582960000000,0,0xFF,0xFF
5.136599400000000,0,0xFF,0xFF
5.136615800000000,0,0xFF,0xFF
5.136632200000000,0,0xFF,0xFF
5.136648640000000,0,0xF0,0xFF
5.136665040000000,0,0x1F,0xFF
5.136681480000000,0,0xF0,0xFF
5.136697880000000,0,0x1F,0xFF
5.136714280000000,0,0xFF,0xFF
5.136730720000000,0,0x00,0xFF
5.136747120000000,0,0x00,0xFF
5.136763560000000,0,0x30,0xFF
5.136779960000000,0,0x03,0xFF
5.136796360000000,0,0xFF,0xFF
5.136812800000000,0,0xFF,0xFF
5.136829200000000,0,0xFF,0xFF
5.136845640000000,0,0xFF,0xFF
5.136862040000000,0,0xFF,0xFF
5.136878440000000,0,0xFF,0xFF
5.136894880000000,0,0xFF,0xFF
5.136911280000000,0,0xFF,0xFF
5.136927720000000,0,0xF0,0xFF
5.136944120000000,0,0x1F,0xFF
5.136960520000000,0,0xF8,0xFF
5.136976960000000,0,0x1F,0xFF
5.136993360000000,0,0xFF,0xFF
5.137009800000000,0,0x00,0xFF
5.137026200000000,0,0x00,0xFF
5.137042600000000,0,0x38,0xFF
5.137059040000000,0,0x07,0xFF
5.137075440000000,0,0xFF,0xFF
5.137091880000000,0,0xFF,0xFF
5.137108280000000,0,0xFF,0xFF
5.137124680000000,0,0xFF,0xFF
5.137141120000000,0,0xFF,0xFF
5.137157520000000,0,0xFF,0xFF
5.137173920000000,0,0xFF,0xFF
5.137190360000000,0,0xFF,0xFF
5.137206760000000,0,0xFF,0xFF
5.137223200000000,0,0xFF,0xFF
5.137239600000000,0,0xFF,0xFF
5.137256000000000,0,0xFF,0xFF
5.137272440000000,0,0xFF,0xFF
5.137288840000000,0,0x3F,0xFF
5.137305280000000,0,0xFF,0xFF
5.137321680000000,0,0xFC,0xFF
5.137338080000000,0,0xFF,0xFF
5.137354520000000,0,0xFF,0xFF
5.137370920000000,0,0xFF,0xFF
5.137387360000000,0,0xFF,0xFF
5.137403760000000,0,0xFF,0xFF
5.137420160000000,0,0xFF,0xFF
5.137436600000000,0,0xFF,0xFF
5.137453000000000,0,0xFF,0xFF
5.137469440000000,0,0xFF,0xFF
5.137485840000000,0,0xFF,0xFF
5.137502240000000,0,0xFF,0xFF
5.137518680000000,0,0xFF,0xFF
5.137535080000000,0,0xFF,0xFF
5.137551520000000,0,0xFF,0xFF
5.137567920000000,0,0x3F,0xFF
5.137584320000000,0,0xFF,0xFF
5.137600760000000,0,0xFC,0xFF
5.137617160000000,0,0xFF,0xFF
5.137633600000000,0,0xFF,0xFF
5.137650000000000,0,0xFF,0xFF
5.137666400000000,0,0xFF,0xFF
5.137682840000000,0,0xFF,0xFF
5.137699240000000,0,0xFF,0xFF
5.137715680000000,0,0xFF,0xFF
5.137732080000000,0,0xFF,0xFF
5.137748480000000,0,0xFF,0xFF
5.137764920000000,0,0xFF,0xFF
5.137781320000000,0,0xFF,0xFF
5.137797720000000,0,0xFF,0xFF
5.137814160000000,0,0xFF,0xFF
5.137830560000000,0,0xFF,0xFF
5.137847000000000,0,0x3F,0xFF
5.137863400000000,0,0xFF,0xFF
5.137879800000000,0,0xF9,0xFF
5.137896240000000,0,0xFF,0xFF
5.137912640000000,0,0xFF,0xFF
5.137929080000000,0,0xFF,0xFF
5.137945480000000,0,0xFF,0xFF
5.137961880000000,0,0xFF,0xFF
5.137978320000000,0,0xFF,0xFF
5.137994720000000,0,0xFF,0xFF
5.138011160000000,0,0xFF,0xFF
5.138027560000000,0,0xFF,0xFF
5.138043960000000,0,0xFF,0xFF
5.138060400000000,0,0xFF,0xFF
5.138076800000000,0,0xF8,0xFF
5.138093240000000,0,0x1F,0xFF
5.138109640000000,0,0xFF,0xFF
5.138126040000000,0,0x3F,0xFF
5.138142480000000,0,0xFF,0xFF
5.138158880000000,0,0xE1,0xFF
5.138175320000000,0,0xFF,0xFF
5.138191720000000,0,0xFF,0xFF
5.138208120000000,0,0xFF,0xFF
5.138224560000000,0,0xFF,0xFF
5.138240960000000,0,0xFF,0xFF
5.138257400000000,0,0xFF,0xFF
5.138273800000000,0,0xFF,0xFF
5.138290200000000,0,0xFF,0xFF
5.138306640000000,0,0xFF,0xFF
5.138323040000000,0,0xFF,0xFF
5.138339440000000,0,0xE0,0xFF
5.138355880000000,0,0x00,0xFF
5.138372280000000,0,0x03,0xFF
5.138388720000000,0,0xFF,0xFF
5.138405120000000,0,0x00,0xFF
5.138421520000000,0,0x00,0xFF
5.138437960000000,0,0x03,0xFF
5.138454360000000,0,0xFF,0xFF
5.138470800000000,0,0xFF,0xFF
5.138487200000000,0,0xFF,0xFF
5.138503600000000,0,0xFF,0xFF
5.138520040000000,0,0xFF,0xFF
5.138536440000000,0,0xFF,0xFF
5.138552880000000,0,0xFF,0xFF
5.138569280000000,0,0xFF,0xFF
5.138585680000000,0,0xFF,0xFF
5.138602120000000,0,0xFE,0xFF
5.138618520000000,0,0x00,0xFF
5.138634960000000,0,0x03,0xFF
5.138651360000000,0,0xC0,0xFF
5.138667760000000,0,0xFF,0xFF
5.138684200000000,0,0xC0,0xFF
5.138700600000000,0,0x00,0xFF
5.138717040000000,0,0x07,0xFF
5.138733440000000,0,0xFF,0xFF
5.138749840000000,0,0xFF,0xFF
5.138766280000000,0,0xFF,0xFF
5.138782680000000,0,0xFF,0xFF
5.138799120000000,0,0xFF,0xFF
5.138815520000000,0,0xFF,0xFF
5.138831920000000,0,0xFF,0xFF
5.138848360000000,0,0xFF,0xFF
5.138864760000000,0,0xFF,0xFF
5.138881200000000,0,0xF8,0xFF
5.138897600000000,0,0x3F,0xFF
5.138914000000000,0,0xFF,0xFF
5.138930440000000,0,0xFC,0xFF
5.138946840000000,0,0xFF,0xFF
5.138963240000000,0,0x8F,0xFF
5.138979680000000,0,0xFF,0xFF
5.138996080000000,0,0xE3,0xFF
5.139012520000000,0,0xFF,0xFF
5.139028920000000,0,0xFF,0xFF
5.139045320000000,0,0xFF,0xFF
5.139061760000000,0,0xFF,0xFF
5.139078160000000,0,0xFF,0xFF
5.139094600000000,0,0xFF,0xFF
5.139111000000000,0,0xFF,0xFF
5.139127400000000,0,0xFF,0xFF
5.139143840000000,0,0xFF,0xFF
5.139160240000000,0,0xF1,0xFF
5.139176680000000,0,0xFF,0xFF
5.139193080000000,0,0xFF,0xFF
5.139209480000000,0,0xFC,0xFF
5.139225920000000,0,0xFF,0xFF
5.139242320000000,0,0x1F,0xFF
5.139258760000000,0,0xFF,0xFF
5.139275160000000,0,0xF1,0xFF
5.139291560000000,0,0xFF,0xFF
5.139308000000000,0,0xFF,0xFF
5.139324400000000,0,0xFF,0xFF
5.139340840000000,0,0xFF,0xFF
5.139357240000000,0,0xFF,0xFF
5.139373640000000,0,0xFF,0xFF
5.139390080000000,0,0xFF,0xFF
5.139406480000000,0,0xFF,0xFF
5.139422920000000,0,0xFF,0xFF
5.139439320000000,0,0xF3,0xFF
5.139455720000000,0,0xFF,0xFF
5.139472160000000,0,0xFF,0xFF
5.139488560000000,0,0xFC,0xFF
5.139505000000000,0,0xFF,0xFF
5.139521400000000,0,0x3F,0xFF
5.139537800000000,0,0xFF,0xFF
5.139554240000000,0,0xF9,0xFF
5.139570640000000,0,0xFF,0xFF
5.139587040000000,0,0xFF,0xFF
5.139603480000000,0,0xFF,0xFF
5.139619880000000,0,0xFF,0xFF
5.139636320000000,0,0xFF,0xFF
5.139652720000000,0,0xFF,0xFF
5.139669120000000,0,0xFF,0xFF
5.139685560000000,0,0xFF,0xFF
5.139701960000000,0,0xFF,0xFF
5.139718400000000,0,0xF3,0xFF
5.139734800000000,0,0xFF,0xFF
5.139751200000000,0,0xFF,0xFF
5.139767640000000,0,0xFC,0xFF
5.139784040000000,0,0xFF,0xFF
5.139800480000000,0,0x3F,0xFF
5.139816880000000,0,0xFF,0xFF
5.139833280000000,0,0xFD,0xFF
5.139849720000000,0,0xFF,0xFF
5.139866120000000,0,0xFF,0xFF
5.139882560000000,0,0xFF,0xFF
5.139898960000000,0,0xFF,0xFF
5.139915360000000,0,0xFF,0xFF
5.139931800000000,0,0xFF,0xFF
5.139948200000000,0,0xFF,0xFF
5.139964640000000,0,0xFF,0xFF
5.139981040000000,0,0xFF,0xFF
5.139997440000000,0,0xF7,0xFF
5.140013880000000,0,0xC0,0xFF
5.140030280000000,0,0x03,0xFF
5.140046720000000,0,0xC0,0xFF
5.140063120000000,0,0xFF,0xFF
5.140079520000000,0,0x78,0xFF
5.140095960000000,0,0x1C,0xFF
5.140112360000000,0,0x3C,0xFF
5.140128800000000,0,0xFF,0xFF
5.140145200000000,0,0xFF,0xFF
5.140161600000000,0,0xFF,0xFF
5.140178040000000,0,0xFF,0xFF
5.140194440000000,0,0xFF,0xFF
5.140210840000000,0,0xFF,0xFF
5.140227280000000,0,0xFF,0xFF
5.140243680000000,0,0xFF,0xFF
5.140260120000000,0,0xFF,0xFF
5.140276520000000,0,0xF7,0xFF
5.140292920000000,0,0x80,0xFF
5.140309360000000,0,0x03,0xFF
5.140325760000000,0,0xC0,0xFF
5.140342200000000,0,0xFF,0xFF
5.140358600000000,0,0x78,0xFF
5.140375000000000,0,0x1C,0xFF
5.140391440000000,0,0x3C,0xFF
5.140407840000000,0,0xFF,0xFF
5.140424280000000,0,0xFF,0xFF
5.140440680000000,0,0xFF,0xFF
5.140457080000000,0,0xFF,0xFF
5.140473520000000,0,0xFF,0xFF
5.140489920000000,0,0xFF,0xFF
5.140506360000000,0,0xFF,0xFF
5.140522760000000,0,0xFF,0xFF
5.140539160000000,0,0xFF,0xFF
5.140555600000000,0,0xF3,0xFF
5.140572000000000,0,0x8F,0xFF
5.140588440000000,0,0xF1,0xFF
5.140604840000000,0,0x8F,0xFF
5.140621240000000,0,0xFF,0xFF
5.140637680000000,0,0x3F,0xFF
5.140654080000000,0,0x9F,0xFF
5.140670520000000,0,0xFD,0xFF
5.140686920000000,0,0xFF,0xFF
5.140703320000000,0,0xFF,0xFF
5.140719760000000,0,0xFF,0xFF
5.140736160000000,0,0xFF,0xFF
5.140752560000000,0,0xFF,0xFF
5.140769000000000,0,0xFF,0xFF
5.140785400000000,0,0xFF,0xFF
5.140801840000000,0,0xFF,0xFF
5.140818240000000,0,0xFF,0xFF
5.140834640000000,0,0xF0,0xFF
5.140851080000000,0,0x00,0xFF
5.140867480000000,0,0x00,0xFF
5.140883920000000,0,0x00,0xFF
5.140900320000000,0,0x3F,0xFF
5.140916720000000,0,0x3F,0xFF
5.140933160000000,0,0x9F,0xFF
5.140949560000000,0,0xF9,0xFF
5.140966000000000,0,0xFF,0xFF
5.140982400000000,0,0xFF,0xFF
5.140998800000000,0,0xFF,0xFF
5.141015240000000,0,0xFF,0xFF
5.141031640000000,0,0xFF,0xFF
5.141048080000000,0,0xFF,0xFF
5.141064480000000,0,0xFF,0xFF
5.141080880000000,0,0xFF,0xFF
5.141097320000000,0,0xFF,0xFF
5.141113720000000,0,0xF3,0xFF
5.141130160000000,0,0xFF,0xFF
5.141146560000000,0,0xFF,0xFF
5.141162960000000,0,0xFF,0xFF
5.141179400000000,0,0x3F,0xFF
5.141195800000000,0,0x9F,0xFF
5.141212240000000,0,0x9F,0xFF
5.141228640000000,0,0xF1,0xFF
5.141245040000000,0,0xFF,0xFF
5.141261480000000,0,0xFF,0xFF
5.141277880000000,0,0xFF,0xFF
5.141294320000000,0,0xFF,0xFF
5.141310720000000,0,0xFF,0xFF
5.141327120000000,0,0xFF,0xFF
5.141343560000000,0,0xFF,0xFF
5.141359960000000,0,0xFF,0xFF
5.141376400000000,0,0xFF,0xFF
5.141392800000000,0,0xF3,0xFF
5.141409200000000,0,0xFF,0xFF
5.141425640000000,0,0xFF,0xFF
5.141442040000000,0,0xFF,0xFF
5.141458440000000,0,0x3F,0xFF
5.141474880000000,0,0xC3,0xFF
5.141491280000000,0,0x9F,0xFF
5.141507720000000,0,0x83,0xFF
5.141524120000000,0,0xFF,0xFF
5.141540520000000,0,0xFF,0xFF
5.141556960000000,0,0xFF,0xFF
5.141573360000000,0,0xFF,0xFF
5.141589800000000,0,0xFF,0xFF
5.141606200000000,0,0xFF,0xFF
5.141622600000000,0,0xFF,0xFF
5.141639040000000,0,0xFF,0xFF
5.141655440000000,0,0xFF,0xFF
5.141671880000000,0,0xF3,0xFF
5.141688280000000,0,0xFF,0xFF
5.141704680000000,0,0xFF,0xFF
5.141721120000000,0,0xFF,0xFF
5.141737520000000,0,0x3F,0xFF
5.141753960000000,0,0xE0,0xFF
5.141770360000000,0,0x00,0xFF
5.141786760000000,0,0x0F,0xFF
5.141803200000000,0,0xFF,0xFF
5.141819600000000,0,0xFF,0xFF
5.141836040000000,0,0xFF,0xFF
5.141852440000000,0,0xFF,0xFF
5.141868840000000,0,0xFF,0xFF
5.141885280000000,0,0xFF,0xFF
5.141901680000000,0,0xFF,0xFF
5.141918120000000,0,0xFF,0xFF
5.141934520000000,0,0xFF,0xFF
5.141950920000000,0,0xF3,0xFF
5.141967360000000,0,0xFF,0xFF
5.141983760000000,0,0xFF,0xFF
5.142000160000000,0,0xFF,0xFF
5.142016600000000,0,0x3F,0xFF
5.142033000000000,0,0xFF,0xFF
5.142049440000000,0,0xFF,0xFF
5.142065840000000,0,0xFF,0xFF
5.142082240000000,0,0xFF,0xFF
5.142098680000000,0,0xFF,0xFF
5.142115080000000,0,0xFF,0xFF
5.142131520000000,0,0xFF,0xFF
5.142147920000000,0,0xFF,0xFF
5.142164320000000,0,0xFF,0xFF
5.142180760000000,0,0xFF,0xFF
5.142197160000000,0,0xFF,0xFF
5.142213600000000,0,0xFF,0xFF
5.142230000000000,0,0xF0,0xFF
5.142246400000000,0,0x00,0xFF
5.142262840000000,0,0x03,0xFF
5.142279240000000,0,0x00,0xFF
5.142295680000000,0,0x3F,0xFF
5.142312080000000,0,0xFF,0xFF
5.142328480000000,0,0xFF,0xFF
5.142344920000000,0,0xFF,0xFF
5.142361320000000,0,0xFF,0xFF
5.142377760000000,0,0xFF,0xFF
5.142394160000000,0,0xFF,0xFF
5.142410560000000,0,0xFF,0xFF
5.142427000000000,0,0xFF,0xFF
5.142443400000000,0,0xFF,0xFF
5.142459840000000,0,0xFF,0xFF
5.142476240000000,0,0xFF,0xFF
5.142492640000000,0,0xFF,0xFF
5.142509080000000,0,0xF0,0xFF
5.142525480000000,0,0x00,0xFF
5.142541920000000,0,0x03,0xFF
5.142558320000000,0,0x80,0xFF
5.142574720000000,0,0x3F,0xFF
5.142591160000000,0,0xFF,0xFF
5.142607560000000,0,0xFF,0xFF
5.142623960000000,0,0xFF,0xFF
5.142640400000000,0,0xFF,0xFF
5.142656800000000,0,0xFF,0xFF
5.142673240000000,0,0xFF,0xFF
5.142689640000000,0,0xFF,0xFF
5.142706040000000,0,0xFF,0xFF
5.142722480000000,0,0xFF,0xFF
5.142738880000000,0,0xFF,0xFF
5.142755320000000,0,0xFF,0xFF
5.142771720000000,0,0xFF,0xFF
5.142788120000000,0,0xF3,0xFF
5.142804560000000,0,0xFF,0xFF
5.142820960000000,0,0xFF,0xFF
5.142837400000000,0,0xCF,0xFF
5.142853800000000,0,0xFF,0xFF
5.142870200000000,0,0xFF,0xFF
5.142886640000000,0,0xFF,0xFF
5.142903040000000,0,0xFF,0xFF
5.142919480000000,0,0xFF,0xFF
5.142935880000000,0,0xFF,0xFF
5.142952280000000,0,0xFF,0xFF
5.142968720000000,0,0xFF,0xFF
5.142985120000000,0,0xFF,0xFF
5.143001560000000,0,0xFF,0xFF
5.143017960000000,0,0xFF,0xFF
5.143034360000000,0,0xFF,0xFF
5.143050800000000,0,0xFF,0xFF
5.143067200000000,0,0xF3,0xFF
5.143083640000000,0,0xFF,0xFF
5.143100040000000,0,0xFF,0xFF
5.143116440000000,0,0xCF,0xFF
5.143132880000000,0,0xFF,0xFF
5.143149280000000,0,0xFF,0xFF
5.143165720000000,0,0xFF,0xFF
5.143182120000000,0,0xFF,0xFF
5.143198520000000,0,0xFF,0xFF
5.143214960000000,0,0xFF,0xFF
5.143231360000000,0,0xFF,0xFF
5.143247760000000,0,0xFF,0xFF
5.143264200000000,0,0xFF,0xFF
5.143280600000000,0,0xFF,0xFF
5.143297040000000,0,0xFF,0xFF
5.143313440000000,0,0xFF,0xFF
5.143329840000000,0,0xFF,0xFF
5.143346280000000,0,0xF3,0xFF
5.143362680000000,0,0xFF,0xFF
5.143379120000000,0,0xFF,0xFF
5.143395520000000,0,0x9F,0xFF
5.143411920000000,0,0x80,0xFF
5.143428360000000,0,0x00,0xFF
5.143444760000000,0,0x00,0xFF
5.143461200000000,0,0x01,0xFF
5.143477600000000,0,0xFF,0xFF
5.143494000000000,0,0xFF,0xFF
5.143510440000000,0,0xFF,0xFF
5.143526840000000,0,0xFF,0xFF
5.143543280000000,0,0xFF,0xFF
5.143559680000000,0,0xFF,0xFF
5.143576080000000,0,0xFF,0xFF
5.143592520000000,0,0xFF,0xFF
5.143608920000000,0,0xFF,0xFF
5.143625360000000,0,0xF3,0xFF
5.143641760000000,0,0xFF,0xFF
5.143658160000000,0,0xFF,0xFF
5.143674600000000,0,0x1F,0xFF
5.143691000000000,0,0x9F,0xFF
5.143707440000000,0,0xFF,0xFF
5.143723840000000,0,0xFF,0xFF
5.143740240000000,0,0xF9,0xFF
5.143756680000000,0,0xFF,0xFF
5.143773080000000,0,0xFF,0xFF
5.143789520000000,0,0xFF,0xFF
5.143805920000000,0,0xFF,0xFF
5.143822320000000,0,0xFF,0xFF
5.143838760000000,0,0xFF,0xFF
5.143855160000000,0,0xFF,0xFF
5.143871560000000,0,0xFF,0xFF
5.143888000000000,0,0xFF,0xFF
5.143904400000000,0,0xF0,0xFF
5.143920840000000,0,0x00,0xFF
5.143937240000000,0,0x00,0xFF
5.143953640000000,0,0x3F,0xFF
5.143970080000000,0,0x9F,0xFF
5.143986480000000,0,0xFF,0xFF
5.144002920000000,0,0xFF,0xFF
5.144019320000000,0,0xFD,0xFF
5.144035720000000,0,0xFF,0xFF
5.144052160000000,0,0xFF,0xFF
5.144068560000000,0,0xFF,0xFF
5.144085000000000,0,0xFF,0xFF
5.144101400000000,0,0xFF,0xFF
5.144117800000000,0,0xFF,0xFF
5.144134240000000,0,0xFF,0xFF
5.144150640000000,0,0xFF,0xFF
5.144167080000000,0,0xFF,0xFF
5.144183480000000,0,0xF8,0xFF
5.144199880000000,0,0x00,0xFF
5.144216320000000,0,0x00,0xFF
5.144232720000000,0,0x7F,0xFF
5.144249160000000,0,0x9F,0xFF
5.144265560000000,0,0xFF,0xFF
5.144281960000000,0,0xFF,0xFF
5.144298400000000,0,0xFD,0xFF
5.144314800000000,0,0xFF,0xFF
5.144331240000000,0,0xFF,0xFF
5.144347640000000,0,0xFF,0xFF
5.144364040000000,0,0xFF,0xFF
5.144380480000000,0,0xFF,0xFF
5.144396880000000,0,0xFF,0xFF
5.144413280000000,0,0xFF,0xFF
5.144429720000000,0,0xFF,0xFF
5.144446120000000,0,0xFF,0xFF
5.144462560000000,0,0xF8,0xFF
5.144478960000000,0,0x7F,0xFF
5.144495360000000,0,0xFC,0xFF
5.144511800000000,0,0x3F,0xFF
5.144528200000000,0,0x9F,0xFF
5.144544640000000,0,0xFF,0xFF
5.144561040000000,0,0xFF,0xFF
5.144577440000000,0,0xFD,0xFF
5.144593880000000,0,0xFF,0xFF
5.144610280000000,0,0xFF,0xFF
5.144626720000000,0,0xFF,0xFF
5.144643120000000,0,0xFF,0xFF
5.144659520000000,0,0xFF,0xFF
5.144675960000000,0,0xFF,0xFF
5.144692360000000,0,0xFF,0xFF
5.144708800000000,0,0xFF,0xFF
5.144725200000000,0,0xFF,0xFF
5.144741600000000,0,0xF1,0xFF
5.144758040000000,0,0xFF,0xFF
5.144774440000000,0,0xFF,0xFF
5.144790880000000,0,0x1F,0xFF
5.144807280000000,0,0x80,0xFF
5.144823680000000,0,0x3C,0xFF
5.144840120000000,0,0x00,0xFF
5.144856520000000,0,0x39,0xFF
5.144872960000000,0,0xFF,0xFF
5.144889360000000,0,0xFF,0xFF
5.144905760000000,0,0xFF,0xFF
5.144922200000000,0,0xFF,0xFF
5.144938600000000,0,0xFF,0xFF
5.144955040000000,0,0xFF,0xFF
5.144971440000000,0,0xFF,0xFF
5.144987840000000,0,0xFF,0xFF
5.145004280000000,0,0xFF,0xFF
5.145020680000000,0,0xF3,0xFF
5.145037080000000,0,0xFF,0xFF
5.145053520000000,0,0xFF,0xFF
5.145069920000000,0,0x9F,0xFF
5.145086360000000,0,0xC0,0xFF
5.145102760000000,0,0x38,0xFF
5.145119160000000,0,0x00,0xFF
5.145135600000000,0,0x39,0xFF
5.145152000000000,0,0xFF,0xFF
5.145168440000000,0,0xFF,0xFF
5.145184840000000,0,0xFF,0xFF
5.145201240000000,0,0xFF,0xFF
5.145217680000000,0,0xFF,0xFF
5.145234080000000,0,0xFF,0xFF
5.145250520000000,0,0xFF,0xFF
5.145266920000000,0,0xFF,0xFF
5.145283320000000,0,0xFF,0xFF
5.145299760000000,0,0xF3,0xFF
5.145316160000000,0,0xFF,0xFF
5.145332600000000,0,0xFF,0xFF
5.145349000000000,0,0xDF,0xFF
5.145365400000000,0,0xFE,0xFF
5.145381840000000,0,0x3F,0xFF
5.145398240000000,0,0xFF,0xFF
5.145414680000000,0,0xFD,0xFF
5.145431080000000,0,0xFF,0xFF
5.145447480000000,0,0xFF,0xFF
5.145463920000000,0,0xFF,0xFF
5.145480320000000,0,0xFF,0xFF
5.145496760000000,0,0xFF,0xFF
5.145513160000000,0,0xFF,0xFF
5.145529560000000,0,0xFF,0xFF
5.145546000000000,0,0xFF,0xFF
5.145562400000000,0,0xFF,0xFF
5.145578840000000,0,0xF7,0xFF
5.145595240000000,0,0x81,0xFF
5.145611640000000,0,0xC3,0xFF
5.145628080000000,0,0xCF,0xFF
5.145644480000000,0,0xFF,0xFF
5.145660880000000,0,0x3F,0xFF
5.145677320000000,0,0xFF,0xFF
5.145693720000000,0,0xFD,0xFF
5.145710160000000,0,0xFF,0xFF
5.145726560000000,0,0xFF,0xFF
5.145742960000000,0,0xFF,0xFF
5.145759400000000,0,0xFF,0xFF
5.145775800000000,0,0xFF,0xFF
5.145792240000000,0,0xFF,0xFF
5.145808640000000,0,0xFF,0xFF
5.145825040000000,0,0xFF,0xFF
5.145841480000000,0,0xFF,0xFF
5.145857880000000,0,0xF7,0xFF
5.145874320000000,0,0x81,0xFF
5.145890720000000,0,0xC3,0xFF
5.145907120000000,0,0xCF,0xFF
5.145923560000000,0,0xFF,0xFF
5.145939960000000,0,0x3F,0xFF
5.145956400000000,0,0xFF,0xFF
5.145972800000000,0,0xF9,0xFF
5.145989200000000,0,0xFF,0xFF
5.146005640000000,0,0xFF,0xFF
5.146022040000000,0,0xFF,0xFF
5.146038480000000,0,0xFF,0xFF
5.146054880000000,0,0xFF,0xFF
5.146071280000000,0,0xFF,0xFF
5.146087720000000,0,0xFF,0xFF
5.146104120000000,0,0xFF,0xFF
5.146120560000000,0,0xFF,0xFF
5.146136960000000,0,0xF3,0xFF
5.146153360000000,0,0xF9,0xFF
5.146169800000000,0,0xFF,0xFF
5.146186200000000,0,0xDF,0xFF
5.146202640000000,0,0xFF,0xFF
5.146219040000000,0,0x1F,0xFF
5.146235440000000,0,0xFF,0xFF
5.146251880000000,0,0xF1,0xFF
5.146268280000000,0,0xFF,0xFF
5.146284680000000,0,0xFF,0xFF
5.146301120000000,0,0xFF,0xFF
5.146317520000000,0,0xFF,0xFF
5.146333960000000,0,0xFF,0xFF
5.146350360000000,0,0xFF,0xFF
5.146366760000000,0,0xFF,0xFF
5.146383200000000,0,0xFF,0xFF
5.146399600000000,0,0xFF,0xFF
5.146416040000000,0,0xF3,0xFF
5.146432440000000,0,0xF9,0xFF
5.146448840000000,0,0xFF,0xFF
5.146465280000000,0,0x9F,0xFF
5.146481680000000,0,0xFF,0xFF
5.146498120000000,0,0x80,0xFF
5.146514520000000,0,0x00,0xFF
5.146530920000000,0,0x03,0xFF
5.146547360000000,0,0xFF,0xFF
5.146563760000000,0,0xFF,0xFF
5.146580200000000,0,0xFF,0xFF
5.146596600000000,0,0xFF,0xFF
5.146613000000000,0,0xFF,0xFF
5.146629440000000,0,0xFF,0xFF
5.146645840000000,0,0xFF,0xFF
5.146662280000000,0,0xFF,0xFF
5.146678680000000,0,0xFF,0xFF
5.146695080000000,0,0xF1,0xFF
5.146711520000000,0,0xF9,0xFF
5.146727920000000,0,0xFF,0xFF
5.146744360000000,0,0x1F,0xFF
5.146760760000000,0,0xFF,0xFF
5.146777160000000,0,0x80,0xFF
5.146793600000000,0,0x00,0xFF
5.146810000000000,0,0x07,0xFF
5.146826400000000,0,0xFF,0xFF
5.146842840000000,0,0xFF,0xFF
5.146859240000000,0,0xFF,0xFF
5.146875680000000,0,0xFF,0xFF
5.146892080000000,0,0xFF,0xFF
5.146908480000000,0,0xFF,0xFF
5.146924920000000,0,0xFF,0xFF
5.146941320000000,0,0xFF,0xFF
5.146957760000000,0,0xFF,0xFF
5.146974160000000,0,0xF8,0xFF
5.146990560000000,0,0x79,0xFF
5.147007000000000,0,0xFE,0xFF
5.147023400000000,0,0x3F,0xFF
5.147039840000000,0,0xFF,0xFF
5.147056240000000,0,0x1F,0xFF
5.147072640000000,0,0xC0,0xFF
5.147089080000000,0,0xE3,0xFF
5.147105480000000,0,0xFF,0xFF
5.147121920000000,0,0xFF,0xFF
5.147138320000000,0,0xFF,0xFF
5.147154720000000,0,0xFF,0xFF
5.147171160000000,0,0xFF,0xFF
5.147187560000000,0,0xFF,0xFF
5.147204000000000,0,0xFF,0xFF
5.147220400000000,0,0xFF,0xFF
5.147236800000000,0,0xFF,0xFF
5.147253240000000,0,0xFC,0xFF
5.147269640000000,0,0x00,0xFF
5.147286080000000,0,0x00,0xFF
5.147302480000000,0,0x7F,0xFF
5.147318880000000,0,0xFF,0xFF
5.147335320000000,0,0x3F,0xFF
5.147351720000000,0,0xE0,0xFF
5.147368160000000,0,0xF1,0xFF
5.147384560000000,0,0xFF,0xFF
5.147400960000000,0,0xFF,0xFF
5.147417400000000,0,0xFF,0xFF
5.147433800000000,0,0xFF,0xFF
5.147450200000000,0,0xFF,0xFF
5.147466640000000,0,0xFF,0xFF
5.147483040000000,0,0xFF,0xFF
5.147499480000000,0,0xFF,0xFF
5.147515880000000,0,0xFF,0xFF
5.147532280000000,0,0xFF,0xFF
5.147548720000000,0,0xC0,0xFF
5.147565120000000,0,0x03,0xFF
5.147581560000000,0,0xFF,0xFF
5.147597960000000,0,0xFF,0xFF
5.147614360000000,0,0x7F,0xFF
5.147630800000000,0,0xF0,0xFF
5.147647200000000,0,0xF9,0xFF
5.147663640000000,0,0xFF,0xFF
5.147680040000000,0,0xFF,0xFF
5.147696440000000,0,0xFF,0xFF
5.147712880000000,0,0xFF,0xFF
5.147729280000000,0,0xFF,0xFF
5.147745720000000,0,0xFF,0xFF
5.147762120000000,0,0xFF,0xFF
5.147778520000000,0,0xFF,0xFF
5.147794960000000,0,0xFF,0xFF
5.147811360000000,0,0xFF,0xFF
5.147827800000000,0,0xFF,0xFF
5.147844200000000,0,0xFF,0xFF
5.147860600000000,0,0xFF,0xFF
5.147877040000000,0,0xFF,0xFF
5.147893440000000,0,0x3F,0xFF
5.147909880000000,0,0xF8,0xFF
5.147926280000000,0,0xFD,0xFF
5.147942680000000,0,0xFF,0xFF
5.147959120000000,0,0xFF,0xFF
5.147975520000000,0,0xFF,0xFF
5.147991960000000,0,0xFF,0xFF
5.148008360000000,0,0xFF,0xFF
5.148024760000000,0,0xFF,0xFF
5.148041200000000,0,0xFF,0xFF
5.148057600000000,0,0xFF,0xFF
5.148074000000000,0,0xFF,0xFF
5.148090440000000,0,0xFF,0xFF
5.148106840000000,0,0xFF,0xFF
5.148123280000000,0,0xFF,0xFF
5.148139680000000,0,0xFF,0xFF
5.148156080000000,0,0xFF,0xFF
5.148172520000000,0,0x38,0xFF
5.148188920000000,0,0x3C,0xFF
5.148205360000000,0,0x3C,0xFF
5.148221760000000,0,0xFF,0xFF
5.148238160000000,0,0xFF,0xFF
5.148254600000000,0,0xFF,0xFF
5.148271000000000,0,0xFF,0xFF
5.148287440000000,0,0xFF,0xFF
5.148303840000000,0,0xFF,0xFF
5.148320240000000,0,0xFF,0xFF
5.148336680000000,0,0xFF,0xFF
5.148353080000000,0,0xFF,0xFF
5.148369520000000,0,0xFF,0xFF
5.148385920000000,0,0xFF,0xFF
5.148402320000000,0,0xFF,0xFF
5.148418760000000,0,0xFF,0xFF
5.148435160000000,0,0xFF,0xFF
5.148451600000000,0,0x1C,0xFF
5.148468000000000,0,0x1C,0xFF
5.148484400000000,0,0x3C,0xFF
5.148500840000000,0,0xFF,0xFF
5.148517240000000,0,0xFF,0xFF
5.148533680000000,0,0xFF,0xFF
5.148550080000000,0,0xFF,0xFF
5.148566480000000,0,0xFF,0xFF
5.148582920000000,0,0xFF,0xFF
5.148599320000000,0,0xFF,0xFF
5.148615760000000,0,0xFF,0xFF
5.148632160000000,0,0xFF,0xFF
5.148648560000000,0,0xFF,0xFF
5.148665000000000,0,0xFF,0xFF
5.148681400000000,0,0xF8,0xFF
5.148697800000000,0,0x1F,0xFF
5.148714240000000,0,0xFF,0xFF
5.148730640000000,0,0x3F,0xFF
5.148747080000000,0,0xFF,0xFF
5.148763480000000,0,0xFD,0xFF
5.148779880000000,0,0xFF,0xFF
5.148796320000000,0,0xFF,0xFF
5.148812720000000,0,0xFF,0xFF
5.148829160000000,0,0xFF,0xFF
5.148845560000000,0,0xFF,0xFF
5.148861960000000,0,0xFF,0xFF
5.148878400000000,0,0xFF,0xFF
5.148894800000000,0,0xFF,0xFF
5.148911240000000,0,0xFF,0xFF
5.148927640000000,0,0xFF,0xFF
5.148944040000000,0,0xFF,0xFF
5.148960480000000,0,0xF0,0xFF
5.148976880000000,0,0x0F,0xFF
5.148993320000000,0,0xFF,0xFF
5.149009720000000,0,0x3F,0xFF
5.149026120000000,0,0xFF,0xFF
5.149042560000000,0,0xF9,0xFF
5.149058960000000,0,0xFF,0xFF
5.149075400000000,0,0xFF,0xFF
5.149091800000000,0,0xFF,0xFF
5.149108200000000,0,0xFF,0xFF
5.149124640000000,0,0xFF,0xFF
5.149141040000000,0,0xFF,0xFF
5.149157480000000,0,0xFF,0xFF
5.149173880000000,0,0xFF,0xFF
5.149190280000000,0,0xFF,0xFF
5.149206720000000,0,0xF0,0xFF
5.149223120000000,0,0x00,0xFF
5.149239520000000,0,0x03,0xFF
5.149255960000000,0,0xC1,0xFF
5.149272360000000,0,0xFF,0xFF
5.149288800000000,0,0x3F,0xFF
5.149305200000000,0,0xFF,0xFF
5.149321600000000,0,0xF1,0xFF
5.149338040000000,0,0xFF,0xFF
5.149354440000000,0,0xFF,0xFF
5.149370880000000,0,0xFF,0xFF
5.149387280000000,0,0xFF,0xFF
5.149403680000000,0,0xFF,0xFF
5.149420120000000,0,0xFF,0xFF
5.149436520000000,0,0xFF,0xFF
5.149452960000000,0,0xFF,0xFF
5.149469360000000,0,0xFF,0xFF
5.149485760000000,0,0xF3,0xFF
5.149502200000000,0,0xFF,0xFF
5.149518600000000,0,0xFF,0xFF
5.149535040000000,0,0xF0,0xFF
5.149551440000000,0,0x7F,0xFF
5.149567840000000,0,0x30,0xFF
5.149584280000000,0,0x7F,0xFF
5.149600680000000,0,0x03,0xFF
5.149617120000000,0,0xFF,0xFF
5.149633520000000,0,0xFF,0xFF
5.149649920000000,0,0xFF,0xFF
5.149666360000000,0,0xFF,0xFF
5.149682760000000,0,0xFF,0xFF
5.149699200000000,0,0xFF,0xFF
5.149715600000000,0,0xFF,0xFF
5.149732000000000,0,0xFF,0xFF
5.149748440000000,0,0xFF,0xFF
5.149764840000000,0,0xF3,0xFF
5.149781280000000,0,0xFF,0xFF
5.149797680000000,0,0xFF,0xFF
5.149814080000000,0,0xFE,0xFF
5.149830520000000,0,0x7F,0xFF
5.149846920000000,0,0x00,0xFF
5.149863320000000,0,0x00,0xFF
5.149879760000000,0,0x07,0xFF
5.149896160000000,0,0xFF,0xFF
5.149912600000000,0,0xFF,0xFF
5.149929000000000,0,0xFF,0xFF
5.149945400000000,0,0xFF,0xFF
5.149961840000000,0,0xFF,0xFF
5.149978240000000,0,0xFF,0xFF
5.149994680000000,0,0xFF,0xFF
5.150011080000000,0,0xFF,0xFF
5.150027480000000,0,0xFF,0xFF
5.150043920000000,0,0xF3,0xFF
5.150060320000000,0,0xFF,0xFF
5.150076760000000,0,0xFF,0xFF
5.150093160000000,0,0xFF,0xFF
5.150109560000000,0,0x3F,0xFF
5.150126000000000,0,0x86,0xFF
5.150142400000000,0,0x20,0xFF
5.150158840000000,0,0x03,0xFF
5.150175240000000,0,0xFF,0xFF
5.150191640000000,0,0xFF,0xFF
5.150208080000000,0,0xFF,0xFF
5.150224480000000,0,0xFF,0xFF
5.150240920000000,0,0xFF,0xFF
5.150257320000000,0,0xFF,0xFF
5.150273720000000,0,0xFF,0xFF
5.150290160000000,0,0xFF,0xFF
5.150306560000000,0,0xFF,0xFF
5.150323000000000,0,0xF3,0xFF
5.150339400000000,0,0xFF,0xFF
5.150355800000000,0,0xFF,0xFF
5.150372240000000,0,0xFF,0xFF
5.150388640000000,0,0x3F,0xFF
5.150405080000000,0,0x1F,0xFF
5.150421480000000,0,0x07,0xFF
5.150437880000000,0,0xF1,0xFF
5.150454320000000,0,0xFF,0xFF
5.150470720000000,0,0xFF,0xFF
5.150487120000000,0,0xFF,0xFF
5.150503560000000,0,0xFF,0xFF
5.150519960000000,0,0xFF,0xFF
5.150536400000000,0,0xFF,0xFF
5.150552800000000,0,0xFF,0xFF
5.150569200000000,0,0xFF,0xFF
5.150585640000000,0,0xFF,0xFF
5.150602040000000,0,0xF0,0xFF
5.150618480000000,0,0x00,0xFF
5.150634880000000,0,0x03,0xFF
5.150651280000000,0,0xCF,0xFF
5.150667720000000,0,0x3F,0xFF
5.150684120000000,0,0x3F,0xFF
5.150700560000000,0,0x0F,0xFF
5.150716960000000,0,0xF9,0xFF
5.150733360000000,0,0xFF,0xFF
5.150749800000000,0,0xFF,0xFF
5.150766200000000,0,0xFF,0xFF
5.150782640000000,0,0xFF,0xFF
5.150799040000000,0,0xFF,0xFF
5.150815440000000,0,0xFF,0xFF
5.150831880000000,0,0xFF,0xFF
5.150848280000000,0,0xFF,0xFF
5.150864720000000,0,0xFF,0xFF
5.150881120000000,0,0xF0,0xFF
5.150897520000000,0,0x00,0xFF
5.150913960000000,0,0x03,0xFF
5.150930360000000,0,0xC7,0xFF
5.150946800000000,0,0xBF,0xFF
5.150963200000000,0,0x3E,0xFF
5.150979600000000,0,0x1F,0xFF
5.150996040000000,0,0xF9,0xFF
5.151012440000000,0,0xFF,0xFF
5.151028880000000,0,0xFF,0xFF
5.151045280000000,0,0xFF,0xFF
5.151061680000000,0,0xFF,0xFF
5.151078120000000,0,0xFF,0xFF
5.151094520000000,0,0xFF,0xFF
5.151110920000000,0,0xFF,0xFF
5.151127360000000,0,0xFF,0xFF
5.151143760000000,0,0xFF,0xFF
5.151160200000000,0,0xF0,0xFF
5.151176600000000,0,0x00,0xFF
5.151193000000000,0,0x00,0xFF
5.151209440000000,0,0x07,0xFF
5.151225840000000,0,0x3F,0xFF
5.151242280000000,0,0x38,0xFF
5.151258680000000,0,0x3E,0xFF
5.151275080000000,0,0x3D,0xFF
5.151291520000000,0,0xFF,0xFF
5.151307920000000,0,0xFF,0xFF
5.151324360000000,0,0xFF,0xFF
5.151340760000000,0,0xFF,0xFF
5.151357160000000,0,0xFF,0xFF
5.151373600000000,0,0xFF,0xFF
5.151390000000000,0,0xFF,0xFF
5.151406440000000,0,0xFF,0xFF
5.151422840000000,0,0xFF,0xFF
5.151439240000000,0,0xF3,0xFF
5.151455680000000,0,0xFF,0xFF
5.151472080000000,0,0xFF,0xFF
5.151488520000000,0,0xFF,0xFF
5.151504920000000,0,0x3F,0xFF
5.151521320000000,0,0x78,0xFF
5.151537760000000,0,0x7C,0xFF
5.151554160000000,0,0x3C,0xFF
5.151570600000000,0,0xFF,0xFF
5.151587000000000,0,0xFF,0xFF
5.151603400000000,0,0xFF,0xFF
5.151619840000000,0,0xFF,0xFF
5.151636240000000,0,0xFF,0xFF
5.151652680000000,0,0xFF,0xFF
5.151669080000000,0,0xFF,0xFF
5.151685480000000,0,0xFF,0xFF
5.151701920000000,0,0xFF,0xFF
5.151718320000000,0,0xF3,0xFF
5.151734720000000,0,0xFF,0xFF
5.151751160000000,0,0xFF,0xFF
5.151767560000000,0,0xFF,0xFF
5.151784000000000,0,0x3F,0xFF
5.151800400000000,0,0x3F,0xFF
5.151816800000000,0,0xF8,0xFF
5.151833240000000,0,0x7D,0xFF
5.151849640000000,0,0xFF,0xFF
5.151866080000000,0,0xFF,0xFF
5.151882480000000,0,0xFF,0xFF
5.151898880000000,0,0xFF,0xFF
5.151915320000000,0,0xFF,0xFF
5.151931720000000,0,0xFF,0xFF
5.151948160000000,0,0xFF,0xFF
5.151964560000000,0,0xFF,0xFF
5.151980960000000,0,0xFF,0xFF
5.151997400000000,0,0xF3,0xFF
5.152013800000000,0,0xFF,0xFF
5.152030240000000,0,0xFF,0xFF
5.152046640000000,0,0xFF,0xFF
5.152063040000000,0,0x3F,0xFF
5.152079480000000,0,0x3F,0xFF
5.152095880000000,0,0xF0,0xFF
5.152112320000000,0,0xF9,0xFF
5.152128720000000,0,0xFF,0xFF
5.152145120000000,0,0xFF,0xFF
5.152161560000000,0,0xFF,0xFF
5.152177960000000,0,0xFF,0xFF
5.152194400000000,0,0xFF,0xFF
5.152210800000000,0,0xFF,0xFF
5.152227200000000,0,0xFF,0xFF
5.152243640000000,0,0xFF,0xFF
5.152260040000000,0,0xFF,0xFF
5.152276440000000,0,0xF3,0xFF
5.152292880000000,0,0xFF,0xFF
5.152309280000000,0,0xFF,0xFF
5.152325720000000,0,0xFF,0xFF
5.152342120000000,0,0x3F,0xFF
5.152358520000000,0,0x1F,0xFF
5.152374960000000,0,0xE0,0xFF
5.152391360000000,0,0xF9,0xFF
5.152407800000000,0,0xFF,0xFF
5.152424200000000,0,0xFF,0xFF
5.152440600000000,0,0xFF,0xFF
5.152457040000000,0,0xFF,0xFF
5.152473440000000,0,0xFF,0xFF
5.152489880000000,0,0xFF,0xFF
5.152506280000000,0,0xFF,0xFF
5.152522680000000,0,0xFF,0xFF
5.152539120000000,0,0xFF,0xFF
5.152555520000000,0,0xF0,0xFF
5.152571960000000,0,0x00,0xFF
5.152588360000000,0,0x00,0xFF
5.152604760000000,0,0x00,0xFF
5.152621200000000,0,0x3F,0xFF
5.152637600000000,0,0x80,0xFF
5.152654040000000,0,0x04,0xFF
5.152670440000000,0,0x63,0xFF
5.152686840000000,0,0xFF,0xFF
5.152703280000000,0,0xFF,0xFF
5.152719680000000,0,0xFF,0xFF
5.152736120000000,0,0xFF,0xFF
5.152752520000000,0,0xFF,0xFF
5.152768920000000,0,0xFF,0xFF
5.152785360000000,0,0xFF,0xFF
5.152801760000000,0,0xFF,0xFF
5.152818200000000,0,0xFF,0xFF
5.152834600000000,0,0xF8,0xFF
5.152851000000000,0,0x00,0xFF
5.152867440000000,0,0xC0,0xFF
5.152883840000000,0,0x7F,0xFF
5.152900240000000,0,0xFF,0xFF
5.152916680000000,0,0xC0,0xFF
5.152933080000000,0,0x18,0xFF
5.152949520000000,0,0x07,0xFF
5.152965920000000,0,0xFF,0xFF
5.152982320000000,0,0xFF,0xFF
5.152998760000000,0,0xFF,0xFF
5.153015160000000,0,0xFF,0xFF
5.153031600000000,0,0xFF,0xFF
5.153048000000000,0,0xFF,0xFF
5.153064400000000,0,0xFF,0xFF
5.153080840000000,0,0xFF,0xFF
5.153097240000000,0,0xFF,0xFF
5.153113680000000,0,0xF1,0xFF
5.153130080000000,0,0xFC,0xFF
5.153146480000000,0,0x0E,0xFF
5.153162920000000,0,0x3F,0xFF
5.153179320000000,0,0xFF,0xFF
5.153195760000000,0,0x86,0xFF
5.153212160000000,0,0x20,0xFF
5.153228560000000,0,0x03,0xFF
5.153245000000000,0,0xFF,0xFF
5.153261400000000,0,0xFF,0xFF
5.153277840000000,0,0xFF,0xFF
5.153294240000000,0,0xFF,0xFF
5.153310640000000,0,0xFF,0xFF
5.153327080000000,0,0xFF,0xFF
5.153343480000000,0,0xFF,0xFF
5.153359920000000,0,0xFF,0xFF
5.153376320000000,0,0xFF,0xFF
5.153392720000000,0,0xF3,0xFF
5.153409160000000,0,0xFE,0xFF
5.153425560000000,0,0x0F,0xFF
5.153442000000000,0,0x1F,0xFF
5.153458400000000,0,0xFF,0xFF
5.153474800000000,0,0x9F,0xFF
5.153491240000000,0,0x07,0xFF
5.153507640000000,0,0xF1,0xFF
5.153524040000000,0,0xFF,0xFF
5.153540480000000,0,0xFF,0xFF
5.153556880000000,0,0xFF,0xFF
5.153573320000000,0,0xFF,0xFF
5.153589720000000,0,0xFF,0xFF
5.153606120000000,0,0xFF,0xFF
5.153622560000000,0,0xFF,0xFF
5.153638960000000,0,0xFF,0xFF
5.153655400000000,0,0xFF,0xFF
5.153671800000000,0,0xF7,0xFF
5.153688200000000,0,0xFF,0xFF
5.153704640000000,0,0x0F,0xFF
5.153721040000000,0,0x9F,0xFF
5.153737480000000,0,0xFF,0xFF
5.153753880000000,0,0x3F,0xFF
5.153770280000000,0,0x0F,0xFF
5.153786720000000,0,0xF9,0xFF
5.153803120000000,0,0xFF,0xFF
5.153819560000000,0,0xFF,0xFF
5.153835960000000,0,0xFF,0xFF
5.153852360000000,0,0xFF,0xFF
5.153868800000000,0,0xFF,0xFF
5.153885200000000,0,0xFF,0xFF
5.153901640000000,0,0xFF,0xFF
5.153918040000000,0,0xFF,0xFF
5.153934440000000,0,0xFF,0xFF
5.153950880000000,0,0xF3,0xFF
5.153967280000000,0,0xFF,0xFF
5.153983720000000,0,0x8F,0xFF
5.154000120000000,0,0xDF,0xFF
5.154016520000000,0,0xFF,0xFF
5.154032960000000,0,0x3E,0xFF
5.154049360000000,0,0x1F,0xFF
5.154065800000000,0,0xF9,0xFF
5.154082200000000,0,0xFF,0xFF
5.154098600000000,0,0xFF,0xFF
5.154115040000000,0,0xFF,0xFF
5.154131440000000,0,0xFF,0xFF
5.154147840000000,0,0xFF,0xFF
5.154164280000000,0,0xFF,0xFF
5.154180680000000,0,0xFF,0xFF
5.154197120000000,0,0xFF,0xFF
5.154213520000000,0,0xFF,0xFF
5.154229920000000,0,0xF3,0xFF
5.154246360000000,0,0x83,0xFF
5.154262760000000,0,0xC3,0xFF
5.154279200000000,0,0xCF,0xFF
5.154295600000000,0,0xFF,0xFF
5.154312000000000,0,0x38,0xFF
5.154328440000000,0,0x3F,0xFF
5.154344840000000,0,0x3D,0xFF
5.154361280000000,0,0xFF,0xFF
5.154377680000000,0,0xFF,0xFF
5.154394080000000,0,0xFF,0xFF
5.154410520000000,0,0xFF,0xFF
5.154426920000000,0,0xFF,0xFF
5.154443360000000,0,0xFF,0xFF
5.154459760000000,0,0xFF,0xFF
5.154476160000000,0,0xFF,0xFF
5.154492600000000,0,0xFF,0xFF
5.154509000000000,0,0xF1,0xFF
5.154525440000000,0,0xC1,0xFF
5.154541840000000,0,0xC3,0xFF
5.154558240000000,0,0xCF,0xFF
5.154574680000000,0,0xFF,0xFF
5.154591080000000,0,0x78,0xFF
5.154607520000000,0,0x7C,0xFF
5.154623920000000,0,0x1C,0xFF
5.154640320000000,0,0xFF,0xFF
5.154656760000000,0,0xFF,0xFF
5.154673160000000,0,0xFF,0xFF
5.154689600000000,0,0xFF,0xFF
5.154706000000000,0,0xFF,0xFF
5.154722400000000,0,0xFF,0xFF
5.154738840000000,0,0xFF,0xFF
5.154755240000000,0,0xFF,0xFF
5.154771640000000,0,0xFF,0xFF
5.154788080000000,0,0xF3,0xFF
5.154804480000000,0,0xFF,0xFF
5.154820920000000,0,0xFF,0xFF
5.154837320000000,0,0xDF,0xFF
5.154853720000000,0,0xFF,0xFF
5.154870160000000,0,0x3F,0xFF
5.154886560000000,0,0xF8,0xFF
5.154903000000000,0,0x7D,0xFF
5.154919400000000,0,0xFF,0xFF
5.154935800000000,0,0xFF,0xFF
5.154952240000000,0,0xFF,0xFF
5.154968640000000,0,0xFF,0xFF
5.154985080000000,0,0xFF,0xFF
5.155001480000000,0,0xFF,0xFF
5.155017880000000,0,0xFF,0xFF
5.155034320000000,0,0xFF,0xFF
5.155050720000000,0,0xFF,0xFF
5.155067160000000,0,0xF3,0xFF
5.155083560000000,0,0xFF,0xFF
5.155099960000000,0,0xFF,0xFF
5.155116400000000,0,0x9F,0xFF
5.155132800000000,0,0xFF,0xFF
5.155149240000000,0,0x3F,0xFF
5.155165640000000,0,0xF0,0xFF
5.155182040000000,0,0xF9,0xFF
5.155198480000000,0,0xFF,0xFF
5.155214880000000,0,0xFF,0xFF
5.155231320000000,0,0xFF,0xFF
5.155247720000000,0,0xFF,0xFF
5.155264120000000,0,0xFF,0xFF
5.155280560000000,0,0xFF,0xFF
5.155296960000000,0,0xFF,0xFF
5.155313360000000,0,0xFF,0xFF
5.155329800000000,0,0xFF,0xFF
5.155346200000000,0,0xF3,0xFF
5.155362640000000,0,0xFF,0xFF
5.155379040000000,0,0xFF,0xFF
5.155395440000000,0,0x1F,0xFF
5.155411880000000,0,0xFF,0xFF
5.155428280000000,0,0x1F,0xFF
5.155444720000000,0,0xE0,0xFF
5.155461120000000,0,0xF9,0xFF
5.155477520000000,0,0xFF,0xFF
5.155493960000000,0,0xFF,0xFF
5.155510360000000,0,0xFF,0xFF
5.155526800000000,0,0xFF,0xFF
5.155543200000000,0,0xFF,0xFF
5.155559600000000,0,0xFF,0xFF
5.155576040000000,0,0xFF,0xFF
5.155592440000000,0,0xFF,0xFF
5.155608880000000,0,0xFF,0xFF
5.155625280000000,0,0x02,0xFF
5.155641680000000,0,0x3C,0xFF
5.155658120000000,0,0x00,0xFF
5.155674520000000,0,0x3F,0xFF
5.155690960000000,0,0xFF,0xFF
5.155707360000000,0,0x8F,0xFF
5.155723760000000,0,0x84,0xFF
5.155740200000000,0,0x41,0xFF
5.155756600000000,0,0xFF,0xFF
5.155773040000000,0,0xFF,0xFF
5.155789440000000,0,0xFF,0xFF
5.155805840000000,0,0xFF,0xFF
5.155822280000000,0,0xFF,0xFF
5.155838680000000,0,0xFF,0xFF
5.155855120000000,0,0xFF,0xFF
5.155871520000000,0,0xFF,0xFF
5.155887920000000,0,0xFE,0xFF
5.155904360000000,0,0x00,0xFF
5.155920760000000,0,0x00,0xFF
5.155937160000000,0,0x00,0xFF
5.155953600000000,0,0x7F,0xFF
5.155970000000000,0,0xFF,0xFF
5.155986440000000,0,0xC0,0xFF
5.156002840000000,0,0x00,0xFF
5.156019240000000,0,0x01,0xFF
5.156035680000000,0,0xFF,0xFF
5.156052080000000,0,0xFF,0xFF
5.156068520000000,0,0xFF,0xFF
5.156084920000000,0,0xFF,0xFF
5.156101320000000,0,0xFF,0xFF
5.156117760000000,0,0xFF,0xFF
5.156134160000000,0,0xFF,0xFF
5.156150600000000,0,0xFF,0xFF
5.156167000000000,0,0xFC,0xFF
5.156183400000000,0,0xF0,0xFF
5.156199840000000,0,0x80,0xFF
5.156216240000000,0,0x00,0xFF
5.156232680000000,0,0x3F,0xFF
5.156249080000000,0,0xFF,0xFF
5.156265480000000,0,0xF0,0xFF
5.156281920000000,0,0x00,0xFF
5.156298320000000,0,0x3D,0xFF
5.156314760000000,0,0xFF,0xFF
5.156331160000000,0,0xFF,0xFF
5.156347560000000,0,0xFF,0xFF
5.156364000000000,0,0xFF,0xFF
5.156380400000000,0,0xFF,0xFF
5.156396840000000,0,0xFF,0xFF
5.156413240000000,0,0xFF,0xFF
5.156429640000000,0,0xFF,0xFF
5.156446080000000,0,0xF9,0xFF
5.156462480000000,0,0xFB,0xFF
5.156478920000000,0,0xCF,0xFF
5.156495320000000,0,0xFF,0xFF
5.156511720000000,0,0x1F,0xFF
5.156528160000000,0,0xFF,0xFF
5.156544560000000,0,0x00,0xFF
5.156560960000000,0,0x3F,0xFF
5.156577400000000,0,0xFD,0xFF
5.156593800000000,0,0xFF,0xFF
5.156610240000000,0,0xFF,0xFF
5.156626640000000,0,0xFF,0xFF
5.156643040000000,0,0xFF,0xFF
5.156659480000000,0,0xFF,0xFF
5.156675880000000,0,0xFF,0xFF
5.156692320000000,0,0xFF,0xFF
5.156708720000000,0,0xFF,0xFF
5.156725120000000,0,0xF9,0xFF
5.156741560000000,0,0xFF,0xFF
5.156757960000000,0,0xFF,0xFF
5.156774400000000,0,0xFF,0xFF
5.156790800000000,0,0x9F,0xFF
5.156807200000000,0,0xFF,0xFF
5.156823640000000,0,0x1F,0xFF
5.156840040000000,0,0xFF,0xFF
5.156856480000000,0,0xFD,0xFF
5.156872880000000,0,0xFF,0xFF
5.156889280000000,0,0xFF,0xFF
5.156905720000000,0,0xFF,0xFF
5.156922120000000,0,0xFF,0xFF
5.156938560000000,0,0xFF,0xFF
5.156954960000000,0,0xFF,0xFF
5.156971360000000,0,0xFF,0xFF
5.156987800000000,0,0xFF,0xFF
5.157004200000000,0,0xF9,0xFF
5.157020640000000,0,0xFF,0xFF
5.157037040000000,0,0xFF,0xFF
5.157053440000000,0,0xFF,0xFF
5.157069880000000,0,0x9F,0xFF
5.157086280000000,0,0xFF,0xFF
5.157102720000000,0,0x3F,0xFF
5.157119120000000,0,0xFF,0xFF
5.157135520000000,0,0xF1,0xFF
5.157151960000000,0,0xFF,0xFF
5.157168360000000,0,0xFF,0xFF
5.157184760000000,0,0xFF,0xFF
5.157201200000000,0,0xFF,0xFF
5.157217600000000,0,0xFF,0xFF
5.157234040000000,0,0xFF,0xFF
5.157250440000000,0,0xFF,0xFF
5.157266840000000,0,0xFF,0xFF
5.157283280000000,0,0xF9,0xFF
5.157299680000000,0,0xC7,0xFF
5.157316120000000,0,0xBC,0xFF
5.157332520000000,0,0x03,0xFF
5.157348920000000,0,0xDF,0xFF
5.157365360000000,0,0xFF,0xFF
5.157381760000000,0,0x3F,0xFF
5.157398200000000,0,0xE0,0xFF
5.157414600000000,0,0x01,0xFF
5.157431000000000,0,0xFF,0xFF
5.157447440000000,0,0xFF,0xFF
5.157463840000000,0,0xFF,0xFF
5.157480280000000,0,0xFF,0xFF
5.157496680000000,0,0xFF,0xFF
5.157513080000000,0,0xFF,0xFF
5.157529520000000,0,0xFF,0xFF
5.157545920000000,0,0xFF,0xFF
5.157562360000000,0,0xF9,0xFF
5.157578760000000,0,0xC7,0xFF
5.157595160000000,0,0xBC,0xFF
5.157611600000000,0,0x03,0xFF
5.157628000000000,0,0xCF,0xFF
5.157644440000000,0,0xFF,0xFF
5.157660840000000,0,0x3F,0xFF
5.157677240000000,0,0xFF,0xFF
5.157693680000000,0,0x01,0xFF
5.157710080000000,0,0xFF,0xFF
5.157726520000000,0,0xFF,0xFF
5.157742920000000,0,0xFF,0xFF
5.157759320000000,0,0xFF,0xFF
5.157775760000000,0,0xFF,0xFF
5.157792160000000,0,0xFF,0xFF
5.157808560000000,0,0xFF,0xFF
5.157825000000000,0,0xFF,0xFF
5.157841400000000,0,0xF9,0xFF
5.157857840000000,0,0xCF,0xFF
5.157874240000000,0,0x1F,0xFF
5.157890640000000,0,0xFF,0xFF
5.157907080000000,0,0xDF,0xFF
5.157923480000000,0,0xFF,0xFF
5.157939920000000,0,0x07,0xFF
5.157956320000000,0,0xFF,0xFF
5.157972720000000,0,0xF9,0xFF
5.157989160000000,0,0xFF,0xFF
5.158005560000000,0,0xFF,0xFF
5.158022000000000,0,0xFF,0xFF
5.158038400000000,0,0xFF,0xFF
5.158054800000000,0,0xFF,0xFF
5.158071240000000,0,0xFF,0xFF
5.158087640000000,0,0xFF,0xFF
5.158104080000000,0,0xFF,0xFF
5.158120480000000,0,0xF9,0xFF
5.158136880000000,0,0xCF,0xFF
5.158153320000000,0,0x1F,0xFF
5.158169720000000,0,0xFF,0xFF
5.158186160000000,0,0x9F,0xFF
5.158202560000000,0,0xFF,0xFF
5.158218960000000,0,0x00,0xFF
5.158235400000000,0,0x1F,0xFF
5.158251800000000,0,0xFD,0xFF
5.158268240000000,0,0xFF,0xFF
5.158284640000000,0,0xFF,0xFF
5.158301040000000,0,0xFF,0xFF
5.158317480000000,0,0xFF,0xFF
5.158333880000000,0,0xFF,0xFF
5.158350280000000,0,0xFF,0xFF
5.158366720000000,0,0xFF,0xFF
5.158383120000000,0,0xFF,0xFF
5.158399560000000,0,0xF9,0xFF
5.158415960000000,0,0xFF,0xFF
5.158432360000000,0,0x0F,0xFF
5.158448800000000,0,0xFF,0xFF
5.158465200000000,0,0x1F,0xFF
5.158481640000000,0,0xFF,0xFF
5.158498040000000,0,0x03,0xFF
5.158514440000000,0,0xFF,0xFF
5.158530880000000,0,0xF9,0xFF
5.158547280000000,0,0xFF,0xFF
5.158563720000000,0,0xFF,0xFF
5.158580120000000,0,0xFF,0xFF
5.158596520000000,0,0xFF,0xFF
5.158612960000000,0,0xFF,0xFF
5.158629360000000,0,0xFF,0xFF
5.158645800000000,0,0xFF,0xFF
5.158662200000000,0,0xFF,0xFF
5.158678600000000,0,0xF8,0xFF
5.158695040000000,0,0xFF,0xFF
5.158711440000000,0,0x07,0xFF
5.158727880000000,0,0xFF,0xFF
5.158744280000000,0,0x9F,0xFF
5.158760680000000,0,0xFF,0xFF
5.158777120000000,0,0x3F,0xFF
5.158793520000000,0,0xFF,0xFF
5.158809960000000,0,0x01,0xFF
5.158826360000000,0,0xFF,0xFF
5.158842760000000,0,0xFF,0xFF
5.158859200000000,0,0xFF,0xFF
5.158875600000000,0,0xFF,0xFF
5.158892040000000,0,0xFF,0xFF
5.158908440000000,0,0xFF,0xFF
5.158924840000000,0,0xFF,0xFF
5.158941280000000,0,0xFF,0xFF
5.158957680000000,0,0xFC,0xFF
5.158974120000000,0,0xFE,0xFF
5.158990520000000,0,0x60,0xFF
5.159006920000000,0,0x03,0xFF
5.159023360000000,0,0x9F,0xFF
5.159039760000000,0,0xFF,0xFF
5.159056160000000,0,0x3F,0xFF
5.159072600000000,0,0xE0,0xFF
5.159089000000000,0,0x01,0xFF
5.159105440000000,0,0xFF,0xFF
5.159121840000000,0,0xFF,0xFF
5.159138240000000,0,0xFF,0xFF
5.159154680000000,0,0xFF,0xFF
5.159171080000000,0,0xFF,0xFF
5.159187520000000,0,0xFF,0xFF
5.159203920000000,0,0xFF,0xFF
5.159220320000000,0,0xFF,0xFF
5.159236760000000,0,0xFE,0xFF
5.159253160000000,0,0x3C,0xFF
5.159269600000000,0,0x78,0xFF
5.159286000000000,0,0x03,0xFF
5.159302400000000,0,0xCF,0xFF
5.159318840000000,0,0xFF,0xFF
5.159335240000000,0,0x3F,0xFF
5.159351680000000,0,0xFF,0xFF
5.159368080000000,0,0xF1,0xFF
5.159384480000000,0,0xFF,0xFF
5.159400920000000,0,0xFF,0xFF
5.159417320000000,0,0xFF,0xFF
5.159433760000000,0,0xFF,0xFF
5.159450160000000,0,0xFF,0xFF
5.159466560000000,0,0xFF,0xFF
5.159483000000000,0,0xFF,0xFF
5.159499400000000,0,0xFF,0xFF
5.159515840000000,0,0xFF,0xFF
5.159532240000000,0,0x00,0xFF
5.159548640000000,0,0xFF,0xFF
5.159565080000000,0,0xF8,0xFF
5.159581480000000,0,0x1F,0xFF
5.159597880000000,0,0xFF,0xFF
5.159614320000000,0,0x1F,0xFF
5.159630720000000,0,0xFF,0xFF
5.159647160000000,0,0xFD,0xFF
5.159663560000000,0,0xFF,0xFF
5.159679960000000,0,0xFF,0xFF
5.159696400000000,0,0xFF,0xFF
5.159712800000000,0,0xFF,0xFF
5.159729240000000,0,0xFF,0xFF
5.159745640000000,0,0xFF,0xFF
5.159762040000000,0,0xFF,0xFF
5.159778480000000,0,0xFF,0xFF
5.159794880000000,0,0xFF,0xFF
5.159811320000000,0,0xE7,0xFF
5.159827720000000,0,0xFF,0xFF
5.159844120000000,0,0xFC,0xFF
5.159860560000000,0,0x3F,0xFF
5.159876960000000,0,0xFF,0xFF
5.159893400000000,0,0x00,0xFF
5.159909800000000,0,0x3F,0xFF
5.159926200000000,0,0xFD,0xFF
5.159942640000000,0,0xFF,0xFF
5.159959040000000,0,0xFF,0xFF
5.159975480000000,0,0xFF,0xFF
5.159991880000000,0,0xFF,0xFF
5.160008280000000,0,0xFF,0xFF
5.160024720000000,0,0xFF,0xFF
5.160041120000000,0,0xFF,0xFF
5.160057560000000,0,0xFF,0xFF
5.160073960000000,0,0xFF,0xFF
5.160090360000000,0,0xFF,0xFF
5.160106800000000,0,0xFF,0xFF
5.160123200000000,0,0xFF,0xFF
5.160139640000000,0,0xFF,0xFF
5.160156040000000,0,0xFF,0xFF
5.160172440000000,0,0xE0,0xFF
5.160188880000000,0,0x00,0xFF
5.160205280000000,0,0x7D,0xFF
5.160221680000000,0,0xFF,0xFF
5.160238120000000,0,0xFF,0xFF
5.160254520000000,0,0xFF,0xFF
5.160270960000000,0,0xFF,0xFF
5.160287360000000,0,0xFF,0xFF
5.160303760000000,0,0xFF,0xFF
5.160320200000000,0,0xFF,0xFF
5.160336600000000,0,0xFF,0xFF
5.160353040000000,0,0xFF,0xFF
5.160369440000000,0,0xFF,0xFF
5.160385840000000,0,0xFF,0xFF
5.160402280000000,0,0xFF,0xFF
5.160418680000000,0,0xFF,0xFF
5.160435120000000,0,0xFF,0xFF
5.160451520000000,0,0xE0,0xFF
5.160467920000000,0,0x00,0xFF
5.160484360000000,0,0x01,0xFF
5.160500760000000,0,0xFF,0xFF
5.160517200000000,0,0xFF,0xFF
5.160533600000000,0,0xFF,0xFF
5.160550000000000,0,0xFF,0xFF
5.160566440000000,0,0xFF,0xFF
5.160582840000000,0,0xFF,0xFF
5.160599280000000,0,0xFF,0xFF
5.160615680000000,0,0xFF,0xFF
5.160632080000000,0,0xFF,0xFF
5.160648520000000,0,0xFF,0xFF
5.160664920000000,0,0xFF,0xFF
5.160681360000000,0,0xFF,0xFF
5.160697760000000,0,0xFF,0xFF
5.160714160000000,0,0xFF,0xFF
5.160730600000000,0,0xC3,0xFF
5.160747000000000,0,0xFF,0xFF
5.160763400000000,0,0x01,0xFF
5.160779840000000,0,0xFF,0xFF
5.160796240000000,0,0xFF,0xFF
5.160812680000000,0,0xFF,0xFF
5.160829080000000,0,0xFF,0xFF
5.160845480000000,0,0xFF,0xFF
5.160861920000000,0,0xFF,0xFF
5.160878320000000,0,0xFF,0xFF
5.160894760000000,0,0xFF,0xFF
5.160911160000000,0,0xFF,0xFF
5.160927560000000,0,0xF0,0xFF
5.160944000000000,0,0x1F,0xFF
5.160960400000000,0,0xF0,0xFF
5.160976840000000,0,0x1F,0xFF
5.160993240000000,0,0xFF,0xFF
5.161009640000000,0,0x9F,0xFF
5.161026080000000,0,0xFF,0xFF
5.161042480000000,0,0xF1,0xFF
5.161058920000000,0,0xFF,0xFF
5.161075320000000,0,0xFF,0xFF
5.161091720000000,0,0xFF,0xFF
5.161108160000000,0,0xFF,0xFF
5.161124560000000,0,0xFF,0xFF
5.161141000000000,0,0xFF,0xFF
5.161157400000000,0,0xFF,0xFF
5.161173800000000,0,0xFF,0xFF
5.161190240000000,0,0xFF,0xFF
5.161206640000000,0,0xF0,0xFF
5.161223080000000,0,0x0F,0xFF
5.161239480000000,0,0xF0,0xFF
5.161255880000000,0,0x1F,0xFF
5.161272320000000,0,0xFF,0xFF
5.161288720000000,0,0x3F,0xFF
5.161305160000000,0,0xFF,0xFF
5.161321560000000,0,0xF9,0xFF
5.161337960000000,0,0xFF,0xFF
5.161354400000000,0,0xFF,0xFF
5.161370800000000,0,0xFF,0xFF
5.161387200000000,0,0xFF,0xFF
5.161403640000000,0,0xFF,0xFF
5.161420040000000,0,0xFF,0xFF
5.161436480000000,0,0xFF,0xFF
5.161452880000000,0,0xFF,0xFF
5.161469280000000,0,0xFF,0xFF
5.161485720000000,0,0xF3,0xFF
5.161502120000000,0,0xCF,0xFF
5.161518560000000,0,0xE7,0xFF
5.161534960000000,0,0xDF,0xFF
5.161551360000000,0,0xFF,0xFF
5.161567800000000,0,0x3F,0xFF
5.161584200000000,0,0xFF,0xFF
5.161600640000000,0,0xFD,0xFF
5.161617040000000,0,0xFF,0xFF
5.161633440000000,0,0xFF,0xFF
5.161649880000000,0,0xFF,0xFF
5.161666280000000,0,0xFF,0xFF
5.161682720000000,0,0xFF,0xFF
5.161699120000000,0,0xFF,0xFF
5.161715520000000,0,0xFF,0xFF
5.161731960000000,0,0xFF,0xFF
5.161748360000000,0,0xFF,0xFF
5.161764800000000,0,0xF3,0xFF
5.161781200000000,0,0xCF,0xFF
5.161797600000000,0,0xE7,0xFF
5.161814040000000,0,0xDF,0xFF
5.161830440000000,0,0xFF,0xFF
5.161846880000000,0,0x78,0xFF
5.161863280000000,0,0x00,0xFF
5.161879680000000,0,0x3C,0xFF
5.161896120000000,0,0xFF,0xFF
5.161912520000000,0,0xFF,0xFF
5.161928960000000,0,0xFF,0xFF
5.161945360000000,0,0xFF,0xFF
5.161961760000000,0,0xFF,0xFF
5.161978200000000,0,0xFF,0xFF
5.161994600000000,0,0xFF,0xFF
5.162011000000000,0,0xFF,0xFF
5.162027440000000,0,0xFF,0xFF
5.162043840000000,0,0xF3,0xFF
5.162060280000000,0,0xCF,0xFF
5.162076680000000,0,0xE7,0xFF
5.162093080000000,0,0xDF,0xFF
5.162109520000000,0,0xFF,0xFF
5.162125920000000,0,0x78,0xFF
5.162142360000000,0,0x00,0xFF
5.162158760000000,0,0x3C,0xFF
5.162175160000000,0,0xFF,0xFF
5.162191600000000,0,0xFF,0xFF
5.162208000000000,0,0xFF,0xFF
5.162224440000000,0,0xFF,0xFF
5.162240840000000,0,0xFF,0xFF
5.162257240000000,0,0xFF,0xFF
5.162273680000000,0,0xFF,0xFF
5.162290080000000,0,0xFF,0xFF
5.162306520000000,0,0xFF,0xFF
5.162322920000000,0,0xF3,0xFF
5.162339320000000,0,0x8F,0xFF
5.162355760000000,0,0xE3,0xFF
5.162372160000000,0,0x9F,0xFF
5.162388600000000,0,0xFF,0xFF
5.162405000000000,0,0x3F,0xFF
5.162421400000000,0,0xFF,0xFF
5.162437840000000,0,0xFD,0xFF
5.162454240000000,0,0xFF,0xFF
5.162470680000000,0,0xFF,0xFF
5.162487080000000,0,0xFF,0xFF
5.162503480000000,0,0xFF,0xFF
5.162519920000000,0,0xFF,0xFF
5.162536320000000,0,0xFF,0xFF
5.162552760000000,0,0xFF,0xFF
5.162569160000000,0,0xFF,0xFF
5.162585560000000,0,0xFF,0xFF
5.162602000000000,0,0x00,0xFF
5.162618400000000,0,0x1F,0xFF
5.162634800000000,0,0xF0,0xFF
5.162651240000000,0,0x1C,0xFF
5.162667640000000,0,0x3F,0xFF
5.162684080000000,0,0x3F,0xFF
5.162700480000000,0,0xFF,0xFF
5.162716880000000,0,0xF9,0xFF
5.162733320000000,0,0xFF,0xFF
5.162749720000000,0,0xFF,0xFF
5.162766160000000,0,0xFF,0xFF
5.162782560000000,0,0xFF,0xFF
5.162798960000000,0,0xFF,0xFF
5.162815400000000,0,0xFF,0xFF
5.162831800000000,0,0xFF,0xFF
5.162848240000000,0,0xFF,0xFF
5.162864640000000,0,0xFF,0xFF
5.162881040000000,0,0x01,0xFF
5.162897480000000,0,0xFF,0xFF
5.162913880000000,0,0xFF,0xFF
5.162930320000000,0,0xF0,0xFF
5.162946720000000,0,0x3F,0xFF
5.162963120000000,0,0x1F,0xFF
5.162979560000000,0,0xFF,0xFF
5.162995960000000,0,0xF1,0xFF
5.163012400000000,0,0xFF,0xFF
5.163028800000000,0,0xFF,0xFF
5.163045200000000,0,0xFF,0xFF
5.163061640000000,0,0xFF,0xFF
5.163078040000000,0,0xFF,0xFF
5.163094480000000,0,0xFF,0xFF
5.163110880000000,0,0xFF,0xFF
5.163127280000000,0,0xFF,0xFF
5.163143720000000,0,0xFE,0xFF
5.163160120000000,0,0x70,0xFF
5.163176560000000,0,0x7F,0xFF
5.163192960000000,0,0xFF,0xFF
5.163209360000000,0,0x83,0xFF
5.163225800000000,0,0x9F,0xFF
5.163242200000000,0,0x87,0xFF
5.163258600000000,0,0xFF,0xFF
5.163275040000000,0,0xE3,0xFF
5.163291440000000,0,0xFF,0xFF
5.163307880000000,0,0xFF,0xFF
5.163324280000000,0,0xFF,0xFF
5.163340680000000,0,0xFF,0xFF
5.163357120000000,0,0xFF,0xFF
5.163373520000000,0,0xFF,0xFF
5.163389960000000,0,0xFF,0xFF
5.163406360000000,0,0xFF,0xFF
5.163422760000000,0,0xFE,0xFF
5.163439200000000,0,0x7C,0xFF
5.163455600000000,0,0x0F,0xFF
5.163472040000000,0,0xFC,0xFF
5.163488440000000,0,0x0F,0xFF
5.163504840000000,0,0x9F,0xFF
5.163521280000000,0,0xC0,0xFF
5.163537680000000,0,0x00,0xFF
5.163554120000000,0,0x07,0xFF
5.163570520000000,0,0xFF,0xFF
5.163586920000000,0,0xFF,0xFF
5.163603360000000,0,0xFF,0xFF
5.163619760000000,0,0xFF,0xFF
5.163636200000000,0,0xFF,0xFF
5.163652600000000,0,0xFF,0xFF
5.163669000000000,0,0xFF,0xFF
5.163685440000000,0,0xFF,0xFF
5.163701840000000,0,0xFE,0xFF
5.163718280000000,0,0x7F,0xFF
5.163734680000000,0,0x80,0xFF
5.163751080000000,0,0x00,0xFF
5.163767520000000,0,0x7F,0xFF
5.163783920000000,0,0x9F,0xFF
5.163800360000000,0,0x00,0xFF
5.163816760000000,0,0x00,0xFF
5.163833160000000,0,0x01,0xFF
5.163849600000000,0,0xFF,0xFF
5.163866000000000,0,0xFF,0xFF
5.163882400000000,0,0xFF,0xFF
5.163898840000000,0,0xFF,0xFF
5.163915240000000,0,0xFF,0xFF
5.163931680000000,0,0xFF,0xFF
5.163948080000000,0,0xFF,0xFF
5.163964480000000,0,0xFF,0xFF
5.163980920000000,0,0xFE,0xFF
5.163997320000000,0,0x1F,0xFF
5.164013760000000,0,0xF8,0xFF
5.164030160000000,0,0x07,0xFF
5.164046560000000,0,0xFF,0xFF
5.164063000000000,0,0x1F,0xFF
5.164079400000000,0,0x3F,0xFF
5.164095840000000,0,0xFF,0xFF
5.164112240000000,0,0xF9,0xFF
5.164128640000000,0,0xFF,0xFF
5.164145080000000,0,0xFF,0xFF
5.164161480000000,0,0xFF,0xFF
5.164177920000000,0,0xFF,0xFF
5.164194320000000,0,0xFF,0xFF
5.164210720000000,0,0xFF,0xFF
5.164227160000000,0,0xFF,0xFF
5.164243560000000,0,0xFF,0xFF
5.164260000000000,0,0xFF,0xFF
5.164276400000000,0,0x0F,0xFF
5.164292800000000,0,0xFF,0xFF
5.164309240000000,0,0xFF,0xFF
5.164325640000000,0,0xFC,0xFF
5.164342080000000,0,0x3F,0xFF
5.164358480000000,0,0x3F,0xFF
5.164374880000000,0,0xFF,0xFF
5.164391320000000,0,0xFD,0xFF
5.164407720000000,0,0xFF,0xFF
5.164424120000000,0,0xFF,0xFF
5.164440560000000,0,0xFF,0xFF
5.164456960000000,0,0xFF,0xFF
5.164473400000000,0,0xFF,0xFF
5.164489800000000,0,0xFF,0xFF
5.164506200000000,0,0xFF,0xFF
5.164522640000000,0,0xFF,0xFF
5.164539040000000,0,0xFF,0xFF
5.164555480000000,0,0xC1,0xFF
5.164571880000000,0,0xFF,0xFF
5.164588280000000,0,0xFF,0xFF
5.164604720000000,0,0xE0,0xFF
5.164621120000000,0,0xFF,0xFF
5.164637560000000,0,0x3F,0xFF
5.164653960000000,0,0xFF,0xFF
5.164670360000000,0,0xFD,0xFF
5.164686800000000,0,0xFF,0xFF
5.164703200000000,0,0xFF,0xFF
5.164719640000000,0,0xFF,0xFF
5.164736040000000,0,0xFF,0xFF
5.164752440000000,0,0xFF,0xFF
5.164768880000000,0,0xFF,0xFF
5.164785280000000,0,0xFF,0xFF
5.164801720000000,0,0xFF,0xFF
5.164818120000000,0,0xFF,0xFF
5.164834520000000,0,0xF0,0xFF
5.164850960000000,0,0x3F,0xFF
5.164867360000000,0,0xFF,0xFF
5.164883800000000,0,0x03,0xFF
5.164900200000000,0,0xFF,0xFF
5.164916600000000,0,0x3F,0xFF
5.164933040000000,0,0xFF,0xFF
5.164949440000000,0,0xFD,0xFF
5.164965880000000,0,0xFF,0xFF
5.164982280000000,0,0xFF,0xFF
5.164998680000000,0,0xFF,0xFF
5.165015120000000,0,0xFF,0xFF
5.165031520000000,0,0xFF,0xFF
5.165047920000000,0,0xFF,0xFF
5.165064360000000,0,0xFF,0xFF
5.165080760000000,0,0xFF,0xFF
5.165097200000000,0,0xFF,0xFF
5.165113600000000,0,0xFE,0xFF
5.165130000000000,0,0x00,0xFF
5.165146440000000,0,0xC0,0xFF
5.165162840000000,0,0x1F,0xFF
5.165179280000000,0,0xFF,0xFF
5.165195680000000,0,0x00,0xFF
5.165212080000000,0,0x00,0xFF
5.165228520000000,0,0x71,0xFF
5.165244920000000,0,0xFF,0xFF
5.165261360000000,0,0xFF,0xFF
5.165277760000000,0,0xFF,0xFF
5.165294160000000,0,0xFF,0xFF
5.165310600000000,0,0xFF,0xFF
5.165327000000000,0,0xFF,0xFF
5.165343440000000,0,0xFF,0xFF
5.165359840000000,0,0xFF,0xFF
5.165376240000000,0,0xFF,0xFF
5.165392680000000,0,0xFF,0xFF
5.165409080000000,0,0xC0,0xFF
5.165425520000000,0,0x00,0xFF
5.165441920000000,0,0xFF,0xFF
